# MHz S MA R 50
!   freq        S11       
108.000000  0.98210  -56.05
110.454454  0.98223  -57.40
112.908909  0.98194  -58.76
115.363363  0.98308  -60.21
117.817818  0.98233  -61.60
120.272272  0.98187  -63.04
122.726727  0.98116  -64.44
125.181181  0.98070  -65.85
127.635636  0.97961  -67.32
130.090090  0.97862  -68.75
132.544545  0.97775  -70.19
134.998999  0.97727  -71.58
137.453453  0.97565  -72.98
139.907908  0.97533  -74.42
142.362362  0.97293  -75.78
144.816817  0.97138  -77.28
147.271271  0.97057  -78.74
149.725726  0.96909  -80.22
152.180180  0.96711  -81.67
154.634635  0.96657  -83.16
157.089089  0.96508  -84.64
159.543544  0.96361  -86.17
161.997998  0.96129  -87.71
164.452452  0.95961  -89.20
166.906907  0.95831  -90.74
169.361361  0.95526  -92.18
171.815816  0.95330  -93.67
174.270270  0.95111  -95.22
176.724725  0.94931  -96.71
179.179179  0.94610  -98.25
181.633634  0.94475  -99.75
184.088088  0.94363 -101.27
186.542543  0.94116 -102.86
188.996997  0.93991 -104.42
191.451451  0.93778 -106.08
193.905906  0.93581 -107.62
196.360360  0.93318 -109.27
198.814815  0.93004 -110.88
201.269269  0.92723 -112.54
203.723724  0.92516 -114.27
206.178178  0.92308 -115.93
208.632633  0.92020 -117.74
211.087087  0.91470 -119.52
213.541542  0.90921 -121.32
215.995996  0.90216 -123.04
218.450450  0.89554 -124.65
220.904905  0.89067 -126.26
223.359359  0.88414 -127.89
225.813814  0.87765 -129.49
228.268268  0.87090 -131.15
230.722723  0.86428 -132.61
233.177177  0.85934 -134.09
235.631632  0.85555 -135.55
238.086086  0.85211 -137.18
240.540541  0.84856 -138.84
242.994995  0.84257 -140.50
245.449449  0.83806 -142.13
247.903904  0.83341 -143.80
250.358358  0.82840 -145.51
252.812813  0.82240 -147.32
255.267267  0.81573 -149.10
257.721722  0.80806 -151.01
260.176176  0.79497 -152.88
262.630631  0.78081 -154.40
265.085085  0.76632 -155.78
267.539540  0.75238 -156.79
269.993994  0.74131 -157.68
272.448448  0.73075 -158.33
274.902903  0.72382 -158.18
277.357357  0.73124 -158.63
279.811812  0.73340 -159.47
282.266266  0.74941 -159.37
284.720721  0.78723 -160.90
287.175175  0.82956 -166.07
289.629630  0.79250 -174.48
292.084084  0.67582 -176.27
294.538539  0.63014 -170.66
296.992993  0.65199 -166.61
299.447447  0.68921 -165.86
301.901902  0.72145 -166.71
304.356356  0.74810 -168.23
306.810811  0.76881 -170.31
309.265265  0.78462 -172.45
311.719720  0.79713 -174.55
314.174174  0.80811 -176.70
316.628629  0.81820 -178.84
319.083083  0.82606  179.13
321.537538  0.83617  177.07
323.991992  0.84576  174.94
326.446446  0.85731  172.64
328.900901  0.86623  170.42
331.355355  0.87583  168.06
333.809810  0.88566  165.60
336.264264  0.89654  163.13
338.718719  0.90496  160.47
341.173173  0.91220  157.82
343.627628  0.91965  154.97
346.082082  0.92560  152.19
348.536537  0.93168  149.26
350.990991  0.93625  146.39
353.445445  0.93856  143.42
355.899900  0.94022  140.44
358.354354  0.94228  137.37
360.808809  0.94400  134.35
363.263263  0.94279  131.25
365.717718  0.94190  128.17
368.172172  0.94160  124.97
370.626627  0.93875  121.83
373.081081  0.93655  118.56
375.535536  0.93331  115.28
377.989990  0.92913  111.93
380.444444  0.92552  108.58
382.898899  0.91999  105.15
385.353353  0.91350  101.69
387.807808  0.90764   98.07
390.262262  0.89914   94.35
392.716717  0.89172   90.66
395.171171  0.88112   86.89
397.625626  0.86860   83.09
400.080080  0.85664   79.29
402.534535  0.84423   75.47
404.988989  0.83237   71.67
407.443443  0.82118   67.78
409.897898  0.81157   63.59
412.352352  0.80037   59.15
414.806807  0.78614   54.56
417.261261  0.76984   49.75
419.715716  0.75047   44.93
422.170170  0.73221   40.29
424.624625  0.71527   35.15
427.079079  0.69741   29.77
429.533534  0.67739   24.07
431.987988  0.66395   17.95
434.442442  0.62937   11.81
436.896897  0.60220    5.27
439.351351  0.57462   -1.49
441.805806  0.54380   -8.80
444.260260  0.50820  -16.30
446.714715  0.47140  -23.64
449.169169  0.43720  -31.07
451.623624  0.40517  -38.93
454.078078  0.37408  -47.31
456.532533  0.34171  -56.18
458.986987  0.30920  -65.05
461.441441  0.27840  -73.52
463.895896  0.25331  -81.44
466.350350  0.23582  -89.33
468.804805  0.22510  -97.80
471.259259  0.21753 -107.21
473.713714  0.21205 -117.28
476.168168  0.20746 -127.13
478.622623  0.20500 -136.38
481.077077  0.20553 -145.29
483.531532  0.20650 -153.96
485.985986  0.20665 -161.58
488.440440  0.20718 -167.88
490.894895  0.20948 -172.68
493.349349  0.21677 -176.10
495.803804  0.23130 -179.39
498.258258  0.25000  176.18
500.712713  0.26768  171.01
503.167167  0.28343  165.61
505.621622  0.29555  160.52
508.076076  0.30605  156.33
510.530531  0.31885  152.76
512.984985  0.33596  149.30
515.439439  0.35506  145.53
517.893894  0.37409  141.26
520.348348  0.39026  136.70
522.802803  0.40428  132.38
525.257257  0.41607  128.13
527.711712  0.42505  124.39
530.166166  0.43475  121.05
532.620621  0.44675  117.92
535.075075  0.45862  114.75
537.529530  0.47304  111.57
539.983984  0.48635  108.45
542.438438  0.50040  105.00
544.892893  0.51447  101.60
547.347347  0.52878   98.02
549.801802  0.54054   94.54
552.256256  0.55124   90.86
554.710711  0.56041   87.29
557.165165  0.56812   83.86
559.619620  0.57500   80.50
562.074074  0.58153   77.16
564.528529  0.58667   73.77
566.982983  0.58996   70.68
569.437437  0.59293   67.69
571.891892  0.59762   64.87
574.346346  0.60322   62.20
576.800801  0.60959   59.27
579.255255  0.61401   56.52
581.709710  0.62152   53.78
584.164164  0.62812   51.05
586.618619  0.63328   48.24
589.073073  0.64298   45.45
591.527528  0.65058   42.60
593.981982  0.66011   39.61
596.436436  0.66723   36.55
598.890891  0.67676   33.38
601.345345  0.68177   29.98
603.799800  0.68802   26.78
606.254254  0.69277   23.55
608.708709  0.69585   20.33
611.163163  0.69904   17.12
613.617618  0.69940   14.03
616.072072  0.70273   10.83
618.526527  0.70583    7.66
620.980981  0.70766    4.51
623.435435  0.70946    1.31
625.889890  0.70958   -2.08
628.344344  0.71190   -5.21
630.798799  0.71045   -8.48
633.253253  0.70911  -11.48
635.707708  0.70714  -14.72
638.162162  0.70474  -17.76
640.616617  0.70183  -20.78
643.071071  0.70062  -23.76
645.525526  0.70146  -26.66
647.979980  0.69771  -30.08
650.434434  0.69971  -32.75
652.888889  0.69884  -35.78
655.343343  0.69663  -38.78
657.797798  0.69602  -41.91
660.252252  0.69463  -44.98
662.706707  0.69163  -47.97
665.161161  0.69033  -51.02
667.615616  0.68882  -53.99
670.070070  0.68632  -57.04
672.524525  0.68697  -60.05
674.978979  0.68586  -63.10
677.433433  0.68389  -66.21
679.887888  0.68192  -69.29
682.342342  0.67896  -72.40
684.796797  0.67670  -75.64
687.251251  0.67441  -78.67
689.705706  0.67235  -81.69
692.160160  0.66865  -84.78
694.614615  0.66430  -87.88
697.069069  0.65989  -90.87
699.523524  0.65578  -93.64
701.977978  0.65193  -96.47
704.432432  0.65138  -99.31
706.886887  0.65041 -102.23
709.341341  0.64793 -105.08
711.795796  0.64662 -108.00
714.250250  0.64620 -111.02
716.704705  0.64286 -113.99
719.159159  0.63851 -116.80
721.613614  0.63896 -119.73
724.068068  0.63561 -122.74
726.522523  0.63527 -125.46
728.976977  0.63419 -128.47
731.431431  0.63287 -131.51
733.885886  0.63251 -134.45
736.340340  0.63153 -137.43
738.794795  0.63040 -140.38
741.249249  0.62840 -143.38
743.703704  0.62810 -146.59
746.158158  0.62757 -149.71
748.612613  0.62760 -152.91
751.067067  0.62620 -156.23
753.521522  0.62341 -159.77
755.975976  0.61848 -163.44
758.430430  0.61149 -167.19
760.884885  0.60534 -170.78
763.339339  0.59631 -174.52
765.793794  0.58196 -178.53
768.248248  0.56158  177.71
770.702703  0.54372  174.59
773.157157  0.52508  171.53
775.611612  0.50403  168.54
778.066066  0.47937  165.42
780.520521  0.44061  162.94
782.974975  0.39485  163.53
785.429429  0.37015  169.59
787.883884  0.39570  175.26
790.338338  0.44090  174.86
792.792793  0.47184  171.66
795.247247  0.48838  167.56
797.701702  0.49658  163.55
800.156156  0.49812  159.63
802.610611  0.49607  155.96
805.065065  0.49225  152.83
807.519520  0.48540  149.63
809.973974  0.47852  146.59
812.428428  0.47259  143.70
814.882883  0.46258  140.73
817.337337  0.45321  138.15
819.791792  0.44349  135.40
822.246246  0.43321  133.03
824.700701  0.42356  130.25
827.155155  0.41235  127.69
829.609610  0.39896  125.49
832.064064  0.38555  123.36
834.518519  0.37341  121.51
836.972973  0.36307  119.84
839.427427  0.35210  118.18
841.881882  0.34077  116.58
844.336336  0.32914  114.93
846.790791  0.31890  113.64
849.245245  0.30784  112.48
851.699700  0.29740  111.49
854.154154  0.28692  110.55
856.608609  0.27841  109.71
859.063063  0.26949  109.02
861.517518  0.25974  108.19
863.971972  0.25042  107.82
866.426426  0.24200  107.41
868.880881  0.23404  107.30
871.335335  0.22602  107.14
873.789790  0.21775  107.10
876.244244  0.20949  107.81
878.698699  0.20371  108.76
881.153153  0.19933  109.58
883.607608  0.19604  109.90
886.062062  0.19328  110.35
888.516517  0.18849  110.03
890.970971  0.18197  109.70
893.425425  0.17437  110.29
895.879880  0.16682  111.41
898.334334  0.15991  113.11
900.788789  0.15372  115.09
903.243243  0.14815  117.37
905.697698  0.14231  120.04
908.152152  0.13630  123.61
910.606607  0.13253  128.55
913.061061  0.13214  134.72
915.515516  0.13565  140.78
917.969970  0.14257  145.94
920.424424  0.15261  150.21
922.878879  0.16389  154.01
925.333333  0.17883  156.80
927.787788  0.19532  158.62
930.242242  0.21414  159.51
932.696697  0.23368  159.85
935.151151  0.25458  159.18
937.605606  0.27370  158.09
940.060060  0.29147  156.62
942.514515  0.30946  155.03
944.968969  0.32414  153.34
947.423423  0.33951  151.79
949.877878  0.35389  150.14
952.332332  0.36960  148.76
954.786787  0.38583  147.17
957.241241  0.40136  145.15
959.695696  0.41496  143.15
962.150150  0.42702  141.22
964.604605  0.43905  139.49
967.059059  0.45094  137.62
969.513514  0.46228  135.91
971.967968  0.47280  134.11
974.422422  0.48209  132.58
976.876877  0.49263  131.18
979.331331  0.50528  129.85
981.785786  0.52028  128.27
984.240240  0.53457  126.60
986.694695  0.54929  124.42
989.149149  0.55952  122.23
991.603604  0.56917  120.18
994.058058  0.57693  118.21
996.512513  0.58335  116.25
998.966967  0.58861  114.50
1001.421421  0.59489  112.87
1003.875876  0.60173  111.20
1006.330330  0.60828  109.95
1008.784785  0.61503  108.24
1011.239239  0.62279  106.64
1013.693694  0.63026  105.09
1016.148148  0.63890  103.20
1018.602603  0.64352  101.50
1021.057057  0.64982   99.99
1023.511512  0.65362   98.47
1025.965966  0.65917   96.82
1028.420420  0.66443   95.52
1030.874875  0.67092   94.13
1033.329329  0.67669   92.41
1035.783784  0.68417   91.00
1038.238238  0.68908   89.47
1040.692693  0.69334   87.97
1043.147147  0.69912   86.33
1045.601602  0.70258   84.78
1048.056056  0.71091   83.47
1050.510511  0.71518   81.97
1052.964965  0.72146   80.35
1055.419419  0.72438   78.85
1057.873874  0.73012   77.35
1060.328328  0.73673   75.58
1062.782783  0.74086   73.76
1065.237237  0.74409   72.23
1067.691692  0.74730   70.65
1070.146146  0.74994   69.00
1072.600601  0.75382   67.66
1075.055055  0.75708   65.84
1077.509510  0.75988   64.34
1079.963964  0.76095   62.63
1082.418418  0.76359   61.17
1084.872873  0.76672   59.66
1087.327327  0.76892   57.85
1089.781782  0.77188   56.23
1092.236236  0.77816   54.83
1094.690691  0.77472   52.92
1097.145145  0.77471   51.33
1099.599600  0.77704   49.70
1102.054054  0.77810   47.92
1104.508509  0.77787   46.35
1106.962963  0.77731   44.38
1109.417417  0.77749   42.79
1111.871872  0.77550   40.93
1114.326326  0.77514   39.20
1116.780781  0.77311   37.33
1119.235235  0.77054   35.67
1121.689690  0.76801   33.79
1124.144144  0.76661   31.96
1126.598599  0.76212   30.39
1129.053053  0.75910   28.31
1131.507508  0.75667   26.20
1133.961962  0.74937   24.11
1136.416416  0.74457   22.04
1138.870871  0.73667   20.09
1141.325325  0.72829   17.87
1143.779780  0.71775   15.76
1146.234234  0.70803   13.60
1148.688689  0.69576   11.41
1151.143143  0.67959    9.32
1153.597598  0.66447    6.67
1156.052052  0.64687    4.48
1158.506507  0.62596    2.33
1160.960961  0.60315    0.14
1163.415415  0.57695   -2.13
1165.869870  0.54825   -4.01
1168.324324  0.51621   -5.63
1170.778779  0.48189   -6.45
1173.233233  0.44716   -6.81
1175.687688  0.41337   -6.13
1178.142142  0.38212   -4.02
1180.596597  0.35759   -0.52
1183.051051  0.34338    4.41
1185.505506  0.34578    9.64
1187.959960  0.36207   14.07
1190.414414  0.38689   15.94
1192.868869  0.41121   15.35
1195.323323  0.42459   13.12
1197.777778  0.42469   11.09
1200.232232  0.41491    9.72
1202.686687  0.40378    9.97
1205.141141  0.39440   11.00
1207.595596  0.39320   12.86
1210.050050  0.39672   14.39
1212.504505  0.40626   15.59
1214.958959  0.41716   16.81
1217.413413  0.42981   16.86
1219.867868  0.44447   17.04
1222.322322  0.45782   16.79
1224.776777  0.47188   16.19
1227.231231  0.48596   15.52
1229.685686  0.49852   14.18
1232.140140  0.51082   12.97
1234.594595  0.52253   11.73
1237.049049  0.53266   10.24
1239.503504  0.54265    8.80
1241.957958  0.55276    7.16
1244.412412  0.55812    5.69
1246.866867  0.56466    4.02
1249.321321  0.57036    2.34
1251.775776  0.57687    0.75
1254.230230  0.58068   -1.02
1256.684685  0.58497   -2.65
1259.139139  0.58697   -4.62
1261.593594  0.58979   -5.94
1264.048048  0.59113   -7.74
1266.502503  0.59109   -9.41
1268.956957  0.59330  -11.20
1271.411411  0.59233  -13.00
1273.865866  0.59100  -14.55
1276.320320  0.58915  -16.28
1278.774775  0.58807  -17.85
1281.229229  0.58673  -19.36
1283.683684  0.58541  -21.10
1286.138138  0.58321  -22.60
1288.592593  0.58123  -24.15
1291.047047  0.57919  -25.79
1293.501502  0.57719  -27.43
1295.955956  0.57392  -28.95
1298.410410  0.56744  -30.84
1300.864865  0.56752  -32.34
1303.319319  0.56235  -34.09
1305.773774  0.55831  -35.81
1308.228228  0.55464  -37.55
1310.682683  0.54847  -39.13
1313.137137  0.54355  -40.64
1315.591592  0.53879  -42.26
1318.046046  0.53359  -43.82
1320.500501  0.52928  -45.38
1322.954955  0.52388  -47.11
1325.409409  0.51680  -48.59
1327.863864  0.51287  -50.15
1330.318318  0.50814  -51.80
1332.772773  0.50238  -53.48
1335.227227  0.49676  -55.15
1337.681682  0.48908  -56.83
1340.136136  0.48191  -58.47
1342.590591  0.47440  -60.23
1345.045045  0.46755  -61.82
1347.499499  0.45896  -63.45
1349.953954  0.45072  -64.99
1352.408408  0.44312  -66.64
1354.862863  0.43583  -68.28
1357.317317  0.42871  -69.67
1359.771772  0.42239  -71.18
1362.226226  0.41348  -72.94
1364.680681  0.40646  -74.57
1367.135135  0.39904  -76.10
1369.589590  0.39181  -77.89
1372.044044  0.38291  -79.79
1374.498498  0.37249  -81.35
1376.952953  0.36296  -83.37
1379.407407  0.35376  -85.10
1381.861862  0.34403  -86.80
1384.316316  0.33361  -88.46
1386.770771  0.32363  -90.26
1389.225225  0.31158  -92.01
1391.679680  0.29940  -93.57
1394.134134  0.28847  -95.00
1396.588589  0.27670  -96.08
1399.043043  0.26345  -97.56
1401.497497  0.25040  -98.79
1403.951952  0.23909  -99.43
1406.406406  0.22133 -100.16
1408.860861  0.21540  -99.88
1411.315315  0.20465  -99.74
1413.769770  0.19460  -99.71
1416.224224  0.18763  -99.17
1418.678679  0.17750  -99.37
1421.133133  0.16949  -98.56
1423.587588  0.16045  -97.91
1426.042042  0.15293  -96.56
1428.496496  0.14551  -95.07
1430.950951  0.13925  -93.36
1433.405405  0.13363  -91.60
1435.859860  0.12865  -88.94
1438.314314  0.12596  -86.75
1440.768769  0.12210  -84.06
1443.223223  0.11895  -80.94
1445.677678  0.11702  -77.22
1448.132132  0.11701  -73.13
1450.586587  0.11952  -69.12
1453.041041  0.12355  -66.06
1455.495495  0.12933  -63.60
1457.949950  0.13474  -62.07
1460.404404  0.13976  -60.82
1462.858859  0.14573  -59.97
1465.313313  0.15121  -59.04
1467.767768  0.15824  -58.61
1470.222222  0.16423  -58.09
1472.676677  0.17211  -58.15
1475.131131  0.17942  -58.52
1477.585586  0.18593  -58.99
1480.040040  0.19390  -59.61
1482.494494  0.20098  -60.40
1484.948949  0.20794  -61.71
1487.403403  0.21518  -63.10
1489.857858  0.22074  -64.23
1492.312312  0.22586  -65.39
1494.766767  0.23267  -66.63
1497.221221  0.23821  -67.82
1499.675676  0.24561  -68.77
1502.130130  0.25361  -70.11
1504.584585  0.26125  -71.71
1507.039039  0.26732  -73.12
1509.493493  0.27298  -74.79
1511.947948  0.27816  -76.69
1514.402402  0.28233  -78.97
1516.856857  0.28827  -79.97
1519.311311  0.29250  -82.07
1521.765766  0.29798  -83.86
1524.220220  0.30377  -85.58
1526.674675  0.30850  -87.67
1529.129129  0.31070  -89.96
1531.583584  0.31435  -91.51
1534.038038  0.31757  -93.70
1536.492492  0.32166  -95.30
1538.946947  0.32566  -96.78
1541.401401  0.33011  -98.95
1543.855856  0.33291 -100.57
1546.310310  0.33639 -102.46
1548.764765  0.34069 -104.19
1551.219219  0.34199 -106.23
1553.673674  0.34505 -108.04
1556.128128  0.34854 -109.89
1558.582583  0.34930 -111.85
1561.037037  0.35213 -113.27
1563.491491  0.35478 -115.13
1565.945946  0.35809 -116.71
1568.400400  0.36032 -118.56
1570.854855  0.36442 -120.32
1573.309309  0.36775 -121.78
1575.763764  0.37153 -123.67
1578.218218  0.37533 -125.79
1580.672673  0.37726 -127.65
1583.127127  0.37944 -129.55
1585.581582  0.38227 -131.68
1588.036036  0.38379 -133.58
1590.490490  0.38744 -135.31
1592.944945  0.38946 -137.25
1595.399399  0.39042 -139.07
1597.853854  0.39283 -140.88
1600.308308  0.39467 -142.73
1602.762763  0.39731 -144.20
1605.217217  0.40012 -145.78
1607.671672  0.40249 -147.71
1610.126126  0.40413 -149.41
1612.580581  0.40648 -150.84
1615.035035  0.40973 -153.13
1617.489489  0.41017 -154.83
1619.943944  0.41126 -156.32
1622.398398  0.41024 -158.38
1624.852853  0.41495 -159.58
1627.307307  0.41707 -161.60
1629.761762  0.41907 -162.77
1632.216216  0.42127 -164.31
1634.670671  0.42382 -166.23
1637.125125  0.42758 -167.84
1639.579580  0.42943 -169.10
1642.034034  0.43211 -170.93
1644.488488  0.43498 -172.06
1646.942943  0.43915 -174.09
1649.397397  0.44085 -175.54
1651.851852  0.44435 -177.54
1654.306306  0.44774 -178.90
1656.760761  0.45012  179.18
1659.215215  0.45133  177.69
1661.669670  0.45547  175.68
1664.124124  0.45668  174.44
1666.578579  0.45885  172.47
1669.033033  0.45973  171.17
1671.487487  0.46099  169.43
1673.941942  0.46222  167.98
1676.396396  0.46284  166.61
1678.850851  0.46399  165.05
1681.305305  0.46553  163.81
1683.759760  0.46678  162.21
1686.214214  0.46954  161.37
1688.668669  0.47481  159.37
1691.123123  0.47717  158.22
1693.577578  0.47908  156.50
1696.032032  0.48251  154.87
1698.486486  0.48348  153.02
1700.940941  0.48447  152.01
1703.395395  0.48647  150.38
1705.849850  0.48739  148.81
1708.304304  0.48742  147.35
1710.758759  0.49189  145.95
1713.213213  0.49394  144.34
1715.667668  0.49675  143.16
1718.122122  0.49834  141.83
1720.576577  0.50079  140.64
1723.031031  0.50254  138.96
1725.485485  0.50678  137.43
1727.939940  0.50601  136.23
1730.394394  0.52225  135.89
1732.848849  0.51302  133.29
1735.303303  0.51520  131.95
1737.757758  0.51955  130.76
1740.212212  0.52097  129.09
1742.666667  0.52229  127.65
1745.121121  0.52296  126.00
1747.575576  0.52464  125.09
1750.030030  0.52997  123.78
1752.484484  0.53169  122.05
1754.938939  0.53090  120.77
1757.393393  0.53378  119.63
1759.847848  0.53587  118.07
1762.302302  0.54018  116.33
1764.756757  0.54126  114.96
1767.211211  0.54664  113.51
1769.665666  0.54686  111.79
1772.120120  0.54593  110.58
1774.574575  0.54591  108.89
1777.029029  0.54704  107.64
1779.483483  0.54710  105.92
1781.937938  0.54900  104.74
1784.392392  0.55035  103.16
1786.846847  0.55004  101.75
1789.301301  0.55174  100.03
1791.755756  0.54816   98.72
1794.210210  0.54727   97.14
1796.664665  0.54324   95.42
1799.119119  0.54170   94.37
1801.573574  0.54073   93.01
1804.028028  0.54082   91.92
1806.482482  0.53762   90.57
1808.936937  0.53700   89.59
1811.391391  0.53865   87.97
1813.845846  0.53527   86.70
1816.300300  0.53718   85.66
1818.754755  0.53758   83.66
1821.209209  0.53380   82.49
1823.663664  0.53524   81.17
