# MHz S MA R 50
!   freq        S11       
108.000000  0.98728  -63.20
110.454454  0.98681  -64.64
112.908909  0.98641  -66.10
115.363363  0.98703  -67.60
117.817818  0.98648  -69.05
120.272272  0.98603  -70.53
122.726727  0.98557  -71.99
125.181181  0.98522  -73.45
127.635636  0.98472  -74.96
130.090090  0.98416  -76.43
132.544545  0.98416  -77.92
134.998999  0.98380  -79.40
137.453453  0.98237  -80.84
139.907908  0.98277  -82.33
142.362362  0.97985  -83.70
144.816817  0.97954  -85.20
147.271271  0.97868  -86.65
149.725726  0.97805  -88.14
152.180180  0.97771  -89.63
154.634635  0.97730  -91.13
157.089089  0.97684  -92.63
159.543544  0.97608  -94.16
161.997998  0.97607  -95.66
164.452452  0.97558  -97.18
166.906907  0.97537  -98.65
169.361361  0.97466 -100.18
171.815816  0.97300 -101.73
174.270270  0.97281 -103.20
176.724725  0.97165 -104.71
179.179179  0.97130 -106.27
181.633634  0.97022 -107.73
184.088088  0.97015 -109.28
186.542543  0.96861 -110.81
188.996997  0.96797 -112.33
191.451451  0.96668 -113.87
193.905906  0.96551 -115.34
196.360360  0.96489 -116.85
198.814815  0.96470 -118.37
201.269269  0.96346 -119.89
203.723724  0.96302 -121.51
206.178178  0.96273 -123.03
208.632633  0.96196 -124.58
211.087087  0.96081 -126.19
213.541542  0.95961 -127.78
215.995996  0.95767 -129.38
218.450450  0.95649 -130.95
220.904905  0.95619 -132.50
223.359359  0.95414 -134.11
225.813814  0.95294 -135.68
228.268268  0.95153 -137.33
230.722723  0.94955 -138.93
233.177177  0.94721 -140.55
235.631632  0.94512 -142.08
238.086086  0.94302 -143.69
240.540541  0.94135 -145.29
242.994995  0.93920 -146.84
245.449449  0.93796 -148.48
247.903904  0.93658 -150.06
250.358358  0.93402 -151.72
252.812813  0.93203 -153.41
255.267267  0.92953 -155.04
257.721722  0.92717 -156.71
260.176176  0.92430 -158.35
262.630631  0.92234 -160.00
265.085085  0.92040 -161.75
267.539540  0.91629 -163.53
269.993994  0.91250 -165.28
272.448448  0.90729 -167.01
274.902903  0.90308 -168.72
277.357357  0.89668 -170.53
279.811812  0.88997 -172.20
282.266266  0.88389 -173.95
284.720721  0.87564 -175.79
287.175175  0.86424 -177.66
289.629630  0.85063 -179.14
292.084084  0.84044  179.49
294.538539  0.82871  178.23
296.992993  0.82018  176.97
299.447447  0.80788  175.58
301.901902  0.79530  174.66
304.356356  0.78812  174.06
306.810811  0.78396  173.28
309.265265  0.78475  172.33
311.719720  0.78508  171.13
314.174174  0.78257  169.64
316.628629  0.77688  168.18
319.083083  0.77023  166.88
321.537538  0.76181  165.74
323.991992  0.75470  164.76
326.446446  0.74881  163.71
328.900901  0.74143  162.88
331.355355  0.73536  162.04
333.809810  0.72844  161.21
336.264264  0.72315  160.82
338.718719  0.72219  160.61
341.173173  0.72548  160.07
343.627628  0.72598  159.26
346.082082  0.72778  158.75
348.536537  0.73278  158.29
350.990991  0.73999  157.82
353.445445  0.75011  156.96
355.899900  0.76080  155.92
358.354354  0.76785  154.66
360.808809  0.77415  153.49
363.263263  0.78054  152.36
365.717718  0.79027  151.18
368.172172  0.79957  149.99
370.626627  0.80662  148.64
373.081081  0.81513  147.34
375.535536  0.82508  145.96
377.989990  0.83447  144.41
380.444444  0.84368  142.85
382.898899  0.84999  141.09
385.353353  0.85471  139.40
387.807808  0.86056  137.78
390.262262  0.86515  136.02
392.716717  0.87197  134.46
395.171171  0.87795  132.80
397.625626  0.88179  131.07
400.080080  0.88759  129.44
402.534535  0.89330  127.68
404.988989  0.89877  125.92
407.443443  0.90028  124.10
409.897898  0.90410  122.26
412.352352  0.90739  120.64
414.806807  0.90851  118.76
417.261261  0.91005  117.07
419.715716  0.91225  115.30
422.170170  0.91265  113.60
424.624625  0.91383  111.85
427.079079  0.91564  110.22
429.533534  0.91581  108.59
431.987988  0.91959  106.97
434.442442  0.91801  105.15
436.896897  0.91976  103.46
439.351351  0.91863  101.77
441.805806  0.91963  100.16
444.260260  0.92000   98.57
446.714715  0.92241   96.91
449.169169  0.92459   95.20
451.623624  0.92342   93.57
454.078078  0.92360   91.75
456.532533  0.92301   90.15
458.986987  0.92328   88.56
461.441441  0.92367   87.03
463.895896  0.92489   85.44
466.350350  0.92546   83.77
468.804805  0.92772   82.16
471.259259  0.92741   80.45
473.713714  0.92901   78.76
476.168168  0.92847   77.08
478.622623  0.92968   75.39
481.077077  0.93007   73.61
483.531532  0.92981   71.95
485.985986  0.92906   70.29
488.440440  0.93009   68.62
490.894895  0.92874   66.95
493.349349  0.92852   65.32
495.803804  0.92951   63.65
498.258258  0.92897   61.98
500.712713  0.92807   60.18
503.167167  0.92888   58.61
505.621622  0.92944   56.89
508.076076  0.92752   55.17
510.530531  0.92696   53.43
512.984985  0.92746   51.78
515.439439  0.92696   50.03
517.893894  0.92653   48.26
520.348348  0.92434   46.57
522.802803  0.92406   44.88
525.257257  0.92171   42.97
527.711712  0.92134   41.38
530.166166  0.91861   39.58
532.620621  0.91771   37.83
535.075075  0.91392   36.14
537.529530  0.91191   34.35
539.983984  0.90859   32.74
542.438438  0.90629   31.04
544.892893  0.90407   29.41
547.347347  0.90351   27.72
549.801802  0.90023   26.05
552.256256  0.89833   24.30
554.710711  0.89591   22.64
557.165165  0.89306   20.91
559.619620  0.89011   19.24
562.074074  0.88754   17.52
564.528529  0.88479   15.72
566.982983  0.88223   14.13
569.437437  0.87738   12.49
571.891892  0.87431   10.83
574.346346  0.87242    9.23
576.800801  0.86823    7.58
579.255255  0.86363    6.04
581.709710  0.86327    4.42
584.164164  0.85928    2.89
586.618619  0.85825    1.36
589.073073  0.85781   -0.34
591.527528  0.85571   -2.06
593.981982  0.85362   -3.75
596.436436  0.84972   -5.45
598.890891  0.84791   -7.17
601.345345  0.84222   -8.95
603.799800  0.84139  -10.46
606.254254  0.83782  -12.17
608.708709  0.83604  -13.85
611.163163  0.83216  -15.52
613.617618  0.82892  -17.23
616.072072  0.82497  -19.02
618.526527  0.82135  -20.66
620.980981  0.81629  -22.31
623.435435  0.81269  -24.02
625.889890  0.80700  -25.69
628.344344  0.80372  -27.45
630.798799  0.79814  -29.19
633.253253  0.79238  -30.69
635.707708  0.78875  -32.18
638.162162  0.78313  -33.76
640.616617  0.77940  -35.28
643.071071  0.77649  -36.84
645.525526  0.77292  -38.49
647.979980  0.76479  -40.19
650.434434  0.76418  -41.73
652.888889  0.76103  -43.34
655.343343  0.75661  -44.90
657.797798  0.75205  -46.66
660.252252  0.74499  -48.36
662.706707  0.74011  -49.85
665.161161  0.73289  -51.38
667.615616  0.72834  -52.86
670.070070  0.72105  -54.43
672.524525  0.71721  -55.75
674.978979  0.71278  -57.13
677.433433  0.70963  -58.52
679.887888  0.70709  -60.09
682.342342  0.70372  -61.77
684.796797  0.70048  -63.58
687.251251  0.69504  -65.34
689.705706  0.68841  -67.11
692.160160  0.67928  -68.75
694.614615  0.67029  -70.36
697.069069  0.66003  -71.77
699.523524  0.65008  -72.96
701.977978  0.63943  -74.11
704.432432  0.63443  -75.19
706.886887  0.62803  -76.21
709.341341  0.62160  -77.13
711.795796  0.61562  -78.21
714.250250  0.61175  -79.03
716.704705  0.60567  -79.97
719.159159  0.60074  -80.77
721.613614  0.59915  -81.55
724.068068  0.59593  -82.35
726.522523  0.59692  -82.97
728.976977  0.59852  -83.69
731.431431  0.60170  -84.59
733.885886  0.60667  -85.57
736.340340  0.61038  -86.72
738.794795  0.61574  -87.98
741.249249  0.62081  -89.20
743.703704  0.62666  -90.75
746.158158  0.63211  -92.29
748.612613  0.63733  -93.97
751.067067  0.64120  -95.79
753.521522  0.64540  -97.70
755.975976  0.64792  -99.63
758.430430  0.65096 -101.68
760.884885  0.65473 -103.72
763.339339  0.65745 -105.76
765.793794  0.65845 -108.07
768.248248  0.65815 -110.49
770.702703  0.66088 -112.84
773.157157  0.66124 -115.25
775.611612  0.66008 -118.06
778.066066  0.65853 -120.90
780.520521  0.65221 -123.98
782.974975  0.64355 -126.96
785.429429  0.63399 -130.11
787.883884  0.62133 -133.22
790.338338  0.60746 -136.36
792.792793  0.58827 -139.44
795.247247  0.57104 -142.56
797.701702  0.55086 -145.56
800.156156  0.53056 -148.67
802.610611  0.50547 -151.69
805.065065  0.48251 -154.34
807.519520  0.45640 -156.74
809.973974  0.43194 -159.30
812.428428  0.40848 -161.97
814.882883  0.38111 -164.59
817.337337  0.35245 -166.92
819.791792  0.32184 -169.36
822.246246  0.29091 -171.23
824.700701  0.26048 -172.54
827.155155  0.23052 -173.51
829.609610  0.19852 -174.07
832.064064  0.16507 -173.29
834.518519  0.13196 -169.27
836.972973  0.10452 -159.23
839.427427  0.08828 -141.60
841.881882  0.08842 -121.16
844.336336  0.10193 -104.62
846.790791  0.12519  -94.92
849.245245  0.15118  -90.75
851.699700  0.17583  -89.12
854.154154  0.19787  -88.32
856.608609  0.22063  -88.06
859.063063  0.24308  -88.26
861.517518  0.26480  -89.33
863.971972  0.28509  -90.94
866.426426  0.30179  -92.35
868.880881  0.31542  -93.38
871.335335  0.33016  -93.83
873.789790  0.34841  -94.39
876.244244  0.36745  -94.79
878.698699  0.39080  -96.14
881.153153  0.41314  -97.64
883.607608  0.43616  -99.60
886.062062  0.45526 -101.75
888.516517  0.47193 -103.99
890.970971  0.48709 -106.18
893.425425  0.50126 -108.28
895.879880  0.51494 -110.37
898.334334  0.52678 -112.44
900.788789  0.53746 -114.39
903.243243  0.55076 -116.30
905.697698  0.56092 -118.38
908.152152  0.56843 -120.25
910.606607  0.57909 -121.98
913.061061  0.58896 -123.85
915.515516  0.59698 -125.50
917.969970  0.60515 -127.36
920.424424  0.61273 -129.18
922.878879  0.61764 -130.80
925.333333  0.62578 -132.37
927.787788  0.63063 -133.94
930.242242  0.64118 -135.41
932.696697  0.64278 -136.94
935.151151  0.65031 -138.48
937.605606  0.65716 -140.18
940.060060  0.66082 -141.51
942.514515  0.66761 -142.93
944.968969  0.67122 -144.49
947.423423  0.67987 -145.66
949.877878  0.68693 -147.07
952.332332  0.69194 -148.64
954.786787  0.69966 -150.08
957.241241  0.70702 -151.46
959.695696  0.71461 -153.18
962.150150  0.72126 -154.61
964.604605  0.72824 -156.24
967.059059  0.72869 -157.84
969.513514  0.73259 -159.29
971.967968  0.73813 -160.99
974.422422  0.74161 -162.29
976.876877  0.74453 -163.78
979.331331  0.74832 -165.18
981.785786  0.75161 -166.65
984.240240  0.75571 -168.01
986.694695  0.75889 -169.37
989.149149  0.76281 -170.79
991.603604  0.76494 -172.12
994.058058  0.76961 -173.47
996.512513  0.77274 -174.90
998.966967  0.77474 -176.28
1001.421421  0.77913 -177.50
1003.875876  0.78309 -178.81
1006.330330  0.78683  179.99
1008.784785  0.79017  178.75
1011.239239  0.79374  177.20
1013.693694  0.79691  175.88
1016.148148  0.80038  174.42
1018.602603  0.80148  172.93
1021.057057  0.80709  171.74
1023.511512  0.80662  170.36
1025.965966  0.80938  169.04
1028.420420  0.81166  167.73
1030.874875  0.81383  166.56
1033.329329  0.81757  165.02
1035.783784  0.82020  163.61
1038.238238  0.82118  162.50
1040.692693  0.82353  161.07
1043.147147  0.82520  159.98
1045.601602  0.82538  158.45
1048.056056  0.82978  157.55
1050.510511  0.83311  156.04
1052.964965  0.83909  154.84
1055.419419  0.83776  153.25
1057.873874  0.83978  151.92
1060.328328  0.84039  150.63
1062.782783  0.84329  149.41
1065.237237  0.84413  148.09
1067.691692  0.84585  146.91
1070.146146  0.84851  145.47
1072.600601  0.84902  144.48
1075.055055  0.85234  142.92
1077.509510  0.85321  141.51
1079.963964  0.85428  140.02
1082.418418  0.85493  138.81
1084.872873  0.85539  137.52
1087.327327  0.85460  136.33
1089.781782  0.85563  135.08
1092.236236  0.85723  134.04
1094.690691  0.85869  132.59
1097.145145  0.85872  131.33
1099.599600  0.86005  130.11
1102.054054  0.86109  128.89
1104.508509  0.86374  127.66
1106.962963  0.86662  126.45
1109.417417  0.86827  124.91
1111.871872  0.86940  123.58
1114.326326  0.87152  122.42
1116.780781  0.87461  120.87
1119.235235  0.87641  119.41
1121.689690  0.87486  117.91
1124.144144  0.87681  116.76
1126.598599  0.87577  115.17
1129.053053  0.87433  113.81
1131.507508  0.87323  112.40
1133.961962  0.87392  111.20
1136.416416  0.87077  109.91
1138.870871  0.87063  108.76
1141.325325  0.87259  107.27
1143.779780  0.87283  105.99
1146.234234  0.87398  104.88
1148.688689  0.87438  103.33
1151.143143  0.87488  102.07
1153.597598  0.87268  100.69
1156.052052  0.87340   99.28
1158.506507  0.87066   97.86
1160.960961  0.86865   96.47
1163.415415  0.86773   95.02
1165.869870  0.86714   93.76
1168.324324  0.86360   92.20
1170.778779  0.86568   90.97
1173.233233  0.86545   89.60
1175.687688  0.86229   87.86
1178.142142  0.85756   86.30
1180.596597  0.85401   85.16
1183.051051  0.85005   83.76
1185.505506  0.84577   82.57
1187.959960  0.84545   81.10
1190.414414  0.84245   79.56
1192.868869  0.83693   78.45
1195.323323  0.83467   77.17
1197.777778  0.83095   75.84
1200.232232  0.82707   74.38
1202.686687  0.82940   73.43
1205.141141  0.82728   71.88
1207.595596  0.82208   70.47
1210.050050  0.81868   69.19
1212.504505  0.82030   67.68
1214.958959  0.81643   66.30
1217.413413  0.81557   64.95
1219.867868  0.81357   63.43
1222.322322  0.80977   61.96
1224.776777  0.80599   60.60
1227.231231  0.80315   59.29
1229.685686  0.79626   57.42
1232.140140  0.79237   56.17
1234.594595  0.78594   54.66
1237.049049  0.78153   53.24
1239.503504  0.77501   52.07
1241.957958  0.77309   50.99
1244.412412  0.76947   49.48
1246.866867  0.76515   48.10
1249.321321  0.76043   46.60
1251.775776  0.75721   45.15
1254.230230  0.75451   44.04
1256.684685  0.74946   42.48
1259.139139  0.74488   40.93
1261.593594  0.73875   39.86
1264.048048  0.73231   38.46
1266.502503  0.72787   36.98
1268.956957  0.72393   36.11
1271.411411  0.72257   35.02
1273.865866  0.71913   33.77
1276.320320  0.71759   32.74
1278.774775  0.71494   31.31
1281.229229  0.71593   30.01
1283.683684  0.71445   28.68
1286.138138  0.71247   27.40
1288.592593  0.71600   26.21
1291.047047  0.71598   24.84
1293.501502  0.71310   23.19
1295.955956  0.71479   21.73
1298.410410  0.71329   20.75
1300.864865  0.71379   18.67
1303.319319  0.71333   17.13
1305.773774  0.71273   15.69
1308.228228  0.71271   14.02
1310.682683  0.71450   12.33
1313.137137  0.71331   10.65
1315.591592  0.71442    9.18
1318.046046  0.71249    7.39
1320.500501  0.71484    5.71
1322.954955  0.71600    4.06
1325.409409  0.71521    2.07
1327.863864  0.71670    0.28
1330.318318  0.71683   -1.60
1332.772773  0.71747   -3.59
1335.227227  0.71739   -5.64
1337.681682  0.71682   -7.54
1340.136136  0.71668   -9.50
1342.590591  0.71511  -11.68
1345.045045  0.71417  -13.57
1347.499499  0.71155  -15.67
1349.953954  0.71061  -17.63
1352.408408  0.71014  -19.61
1354.862863  0.70803  -21.76
1357.317317  0.70592  -23.70
1359.771772  0.70641  -25.83
1362.226226  0.70394  -27.91
1364.680681  0.70184  -30.13
1367.135135  0.70160  -32.07
1369.589590  0.70057  -34.37
1372.044044  0.69929  -36.43
1374.498498  0.69775  -38.53
1376.952953  0.69509  -40.65
1379.407407  0.69456  -42.82
1381.861862  0.69439  -45.14
1384.316316  0.69188  -47.32
1386.770771  0.69183  -49.65
1389.225225  0.68985  -51.77
1391.679680  0.68880  -54.17
1394.134134  0.68951  -56.48
1396.588589  0.68795  -58.70
1399.043043  0.68739  -60.80
1401.497497  0.68449  -63.24
1403.951952  0.68739  -65.38
1406.406406  0.67360  -67.08
1408.860861  0.68694  -69.83
1411.315315  0.68551  -72.04
1413.769770  0.68457  -74.21
1416.224224  0.68594  -76.46
1418.678679  0.68106  -78.58
1421.133133  0.68283  -80.87
1423.587588  0.68534  -82.93
1426.042042  0.68322  -85.30
1428.496496  0.68254  -87.20
1430.950951  0.68183  -89.44
1433.405405  0.68538  -91.89
1435.859860  0.68674  -93.67
1438.314314  0.68727  -96.07
1440.768769  0.68620  -98.19
1443.223223  0.68664 -100.36
1445.677678  0.69040 -102.54
1448.132132  0.69318 -104.76
1450.586587  0.69487 -106.79
1453.041041  0.69518 -109.32
1455.495495  0.69699 -111.42
1457.949950  0.69926 -113.64
1460.404404  0.70074 -115.73
1462.858859  0.70397 -117.75
1465.313313  0.70284 -119.88
1467.767768  0.70491 -122.07
1470.222222  0.70915 -123.81
1472.676677  0.71081 -125.87
1475.131131  0.71259 -127.99
1477.585586  0.71585 -130.15
1480.040040  0.71736 -131.86
1482.494494  0.72154 -133.89
1484.948949  0.72563 -135.80
1487.403403  0.72951 -137.77
1489.857858  0.73193 -139.90
1492.312312  0.73437 -141.59
1494.766767  0.73933 -143.48
1497.221221  0.74265 -145.46
1499.675676  0.74571 -147.31
1502.130130  0.74861 -149.02
1504.584585  0.75282 -150.94
1507.039039  0.75617 -152.93
1509.493493  0.75882 -154.40
1511.947948  0.76328 -156.35
1514.402402  0.77133 -158.21
1516.856857  0.77071 -159.88
1519.311311  0.77468 -161.91
1521.765766  0.77736 -163.66
1524.220220  0.78142 -165.29
1526.674675  0.78643 -166.84
1529.129129  0.78941 -168.34
1531.583584  0.79411 -170.23
1534.038038  0.79914 -172.30
1536.492492  0.80332 -173.66
1538.946947  0.80739 -175.21
1541.401401  0.81204 -176.74
1543.855856  0.81566 -178.54
1546.310310  0.81979  179.96
1548.764765  0.82370  178.18
1551.219219  0.82725  176.64
1553.673674  0.83042  175.17
1556.128128  0.83385  173.46
1558.582583  0.83724  172.12
1561.037037  0.84204  170.46
1563.491491  0.84583  169.02
1565.945946  0.84973  167.68
1568.400400  0.85430  165.79
1570.854855  0.85780  164.43
1573.309309  0.86209  163.14
1575.763764  0.86554  161.48
1578.218218  0.86900  160.09
1580.672673  0.87268  158.80
1583.127127  0.87527  157.50
1585.581582  0.87983  156.01
1588.036036  0.88190  154.54
1590.490490  0.88469  153.24
1592.944945  0.88920  151.62
1595.399399  0.89214  150.34
1597.853854  0.89514  148.87
1600.308308  0.90087  147.56
1602.762763  0.90013  146.30
1605.217217  0.90882  144.78
1607.671672  0.91080  143.40
1610.126126  0.91319  142.38
1612.580581  0.92039  141.07
1615.035035  0.91950  139.66
1617.489489  0.92403  138.58
1619.943944  0.92516  137.04
1622.398398  0.90907  136.63
1624.852853  0.93096  134.54
1627.307307  0.93156  133.24
1629.761762  0.93564  131.94
1632.216216  0.94043  130.58
1634.670671  0.94404  129.58
1637.125125  0.94528  128.48
1639.579580  0.95093  127.05
1642.034034  0.95365  125.84
1644.488488  0.95403  124.56
1646.942943  0.95782  123.26
1649.397397  0.95911  122.37
1651.851852  0.96001  121.13
1654.306306  0.96293  120.00
1656.760761  0.96679  118.84
1659.215215  0.96640  117.99
1661.669670  0.96874  116.25
1664.124124  0.97244  115.54
1666.578579  0.97390  113.85
1669.033033  0.98011  112.75
1671.487487  0.97779  111.71
1673.941942  0.97991  110.51
1676.396396  0.98182  109.55
1678.850851  0.98389  108.26
1681.305305  0.98725  107.00
1683.759760  0.98703  105.83
1686.214214  0.99034  104.87
1688.668669  0.99058  103.80
1691.123123  0.99127  102.79
1693.577578  0.98970  101.52
1696.032032  0.99531  100.41
1698.486486  0.99278   99.31
1700.940941  0.99869   98.34
1703.395395  0.99891   97.41
1705.849850  0.99633   96.13
1708.304304  1.00131   95.07
1710.758759  1.00156   94.15
1713.213213  1.00076   92.80
1715.667668  1.00276   91.84
1718.122122  1.00273   90.82
1720.576577  1.00453   90.03
1723.031031  1.00503   88.89
1725.485485  1.00769   87.80
1727.939940  1.00319   86.44
1730.394394  1.02313   84.70
1732.848849  1.01012   84.59
1735.303303  1.00513   83.50
1737.757758  1.00526   82.43
1740.212212  1.00860   81.33
1742.666667  1.00556   80.47
1745.121121  1.00693   79.77
1747.575576  1.00776   78.88
1750.030030  1.01160   77.58
1752.484484  1.01547   76.57
1754.938939  1.00799   75.40
1757.393393  1.00895   74.54
1759.847848  1.00566   73.23
1762.302302  1.00781   72.41
1764.756757  1.00278   71.35
1767.211211  1.00718   70.21
1769.665666  1.00387   69.33
1772.120120  1.00284   68.37
1774.574575  1.00051   67.31
1777.029029  0.99923   66.34
1779.483483  0.99729   65.39
1781.937938  0.99904   64.24
1784.392392  0.99461   63.25
1786.846847  0.99261   62.33
1789.301301  0.99195   61.27
1791.755756  0.98840   60.29
1794.210210  0.98759   59.37
1796.664665  0.98128   58.25
1799.119119  0.98135   57.24
1801.573574  0.97957   56.60
1804.028028  0.97719   55.60
1806.482482  0.97351   54.61
1808.936937  0.97096   53.74
1811.391391  0.96854   52.58
1813.845846  0.96413   51.77
1816.300300  0.96384   50.75
1818.754755  0.95779   49.89
1821.209209  0.95430   49.05
1823.663664  0.95595   47.81
