# MHz S MA R 50
!   freq        S11       
108.000000  0.98687  -63.29
110.454454  0.98714  -64.76
112.908909  0.98649  -66.20
115.363363  0.98761  -67.71
117.817818  0.98669  -69.16
120.272272  0.98617  -70.64
122.726727  0.98536  -72.13
125.181181  0.98566  -73.63
127.635636  0.98479  -75.15
130.090090  0.98427  -76.59
132.544545  0.98392  -78.07
134.998999  0.98426  -79.56
137.453453  0.98325  -80.96
139.907908  0.98315  -82.49
142.362362  0.98030  -83.87
144.816817  0.97983  -85.31
147.271271  0.97961  -86.82
149.725726  0.97898  -88.31
152.180180  0.97825  -89.81
154.634635  0.97830  -91.33
157.089089  0.97791  -92.84
159.543544  0.97739  -94.34
161.997998  0.97697  -95.85
164.452452  0.97581  -97.38
166.906907  0.97626  -98.89
169.361361  0.97403 -100.38
171.815816  0.97224 -101.87
174.270270  0.97300 -103.32
176.724725  0.97274 -104.84
179.179179  0.97243 -106.42
181.633634  0.97167 -107.89
184.088088  0.97150 -109.43
186.542543  0.97034 -111.04
188.996997  0.96953 -112.55
191.451451  0.96822 -114.10
193.905906  0.96758 -115.56
196.360360  0.96673 -117.14
198.814815  0.96551 -118.62
201.269269  0.96451 -120.16
203.723724  0.96430 -121.77
206.178178  0.96363 -123.31
208.632633  0.96330 -124.87
211.087087  0.96241 -126.45
213.541542  0.96084 -128.07
215.995996  0.95881 -129.68
218.450450  0.95770 -131.22
220.904905  0.95668 -132.77
223.359359  0.95502 -134.35
225.813814  0.95346 -135.92
228.268268  0.95224 -137.55
230.722723  0.95134 -139.15
233.177177  0.94943 -140.77
235.631632  0.94728 -142.34
238.086086  0.94465 -143.94
240.540541  0.94371 -145.50
242.994995  0.94161 -147.04
245.449449  0.94086 -148.70
247.903904  0.93911 -150.29
250.358358  0.93670 -151.90
252.812813  0.93523 -153.56
255.267267  0.93344 -155.14
257.721722  0.93197 -156.81
260.176176  0.93031 -158.49
262.630631  0.92942 -160.17
265.085085  0.92776 -161.97
267.539540  0.92515 -163.82
269.993994  0.92083 -165.66
272.448448  0.91517 -167.47
274.902903  0.90941 -169.27
277.357357  0.90109 -171.03
279.811812  0.89466 -172.68
282.266266  0.88810 -174.46
284.720721  0.87839 -176.24
287.175175  0.86686 -177.87
289.629630  0.85578 -179.33
292.084084  0.84536  179.29
294.538539  0.83514  178.10
296.992993  0.82832  177.01
299.447447  0.82057  175.65
301.901902  0.81119  174.59
304.356356  0.80638  173.70
306.810811  0.80268  172.65
309.265265  0.80208  171.51
311.719720  0.80187  170.26
314.174174  0.80038  168.70
316.628629  0.79452  167.09
319.083083  0.78758  165.61
321.537538  0.77669  164.25
323.991992  0.76691  163.12
326.446446  0.75643  162.08
328.900901  0.74775  161.20
331.355355  0.74147  160.38
333.809810  0.73343  159.51
336.264264  0.72782  158.98
338.718719  0.72472  158.62
341.173173  0.72500  158.19
343.627628  0.72257  157.54
346.082082  0.72185  157.25
348.536537  0.72665  156.93
350.990991  0.73497  156.56
353.445445  0.74360  155.80
355.899900  0.75317  154.89
358.354354  0.76097  153.83
360.808809  0.76888  152.87
363.263263  0.77841  151.81
365.717718  0.78918  150.60
368.172172  0.79871  149.41
370.626627  0.80724  148.12
373.081081  0.81923  146.76
375.535536  0.83024  145.23
377.989990  0.83916  143.55
380.444444  0.84812  141.87
382.898899  0.85423  140.14
385.353353  0.85854  138.48
387.807808  0.86207  136.91
390.262262  0.86719  135.30
392.716717  0.87449  133.62
395.171171  0.87935  131.94
397.625626  0.88516  130.18
400.080080  0.88972  128.43
402.534535  0.89456  126.58
404.988989  0.89870  124.78
407.443443  0.89897  122.96
409.897898  0.90267  121.25
412.352352  0.90564  119.69
414.806807  0.90793  118.01
417.261261  0.91082  116.28
419.715716  0.91509  114.57
422.170170  0.91344  112.79
424.624625  0.91406  111.10
427.079079  0.91691  109.39
429.533534  0.91783  107.77
431.987988  0.93522  105.91
434.442442  0.92006  104.39
436.896897  0.92186  102.66
439.351351  0.92166  101.00
441.805806  0.92337   99.41
444.260260  0.92558   97.78
446.714715  0.92705   96.03
449.169169  0.92729   94.35
451.623624  0.92631   92.65
454.078078  0.92654   90.94
456.532533  0.92737   89.35
458.986987  0.92842   87.77
461.441441  0.92844   86.16
463.895896  0.92978   84.52
466.350350  0.92969   82.82
468.804805  0.93090   81.20
471.259259  0.92951   79.59
473.713714  0.93077   77.98
476.168168  0.93088   76.33
478.622623  0.93020   74.63
481.077077  0.93184   72.91
483.531532  0.93001   71.21
485.985986  0.93009   69.46
488.440440  0.93102   67.77
490.894895  0.93055   66.11
493.349349  0.93023   64.52
495.803804  0.93102   62.88
498.258258  0.93054   61.26
500.712713  0.92988   59.49
503.167167  0.93088   57.85
505.621622  0.93098   56.15
508.076076  0.92862   54.53
510.530531  0.92833   52.76
512.984985  0.92897   51.09
515.439439  0.92757   49.31
517.893894  0.92652   47.61
520.348348  0.92452   45.98
522.802803  0.92395   44.29
525.257257  0.92218   42.49
527.711712  0.92152   40.93
530.166166  0.91987   39.15
532.620621  0.91823   37.39
535.075075  0.91472   35.76
537.529530  0.91312   33.99
539.983984  0.90960   32.37
542.438438  0.90779   30.73
544.892893  0.90640   29.13
547.347347  0.90544   27.38
549.801802  0.90272   25.76
552.256256  0.89998   24.07
554.710711  0.89684   22.37
557.165165  0.89462   20.72
559.619620  0.89258   19.05
562.074074  0.88945   17.38
564.528529  0.88652   15.64
566.982983  0.88451   14.05
569.437437  0.88002   12.33
571.891892  0.87612   10.86
574.346346  0.87335    9.18
576.800801  0.87097    7.69
579.255255  0.86654    6.04
581.709710  0.86671    4.48
584.164164  0.86163    3.01
586.618619  0.86242    1.31
589.073073  0.86153   -0.33
591.527528  0.85954   -2.00
593.981982  0.85715   -3.67
596.436436  0.85315   -5.36
598.890891  0.85021   -6.98
601.345345  0.84796   -8.67
603.799800  0.84423  -10.25
606.254254  0.84199  -11.85
608.708709  0.84000  -13.50
611.163163  0.83731  -15.16
613.617618  0.83318  -16.85
616.072072  0.83060  -18.58
618.526527  0.82604  -20.30
620.980981  0.82234  -21.97
623.435435  0.81832  -23.62
625.889890  0.81359  -25.28
628.344344  0.81264  -26.88
630.798799  0.80489  -28.87
633.253253  0.79970  -30.34
635.707708  0.79474  -31.86
638.162162  0.79038  -33.37
640.616617  0.78462  -34.86
643.071071  0.78222  -36.34
645.525526  0.77889  -38.00
647.979980  0.77539  -39.77
650.434434  0.77175  -41.28
652.888889  0.76635  -42.91
655.343343  0.76267  -44.32
657.797798  0.75832  -46.18
660.252252  0.75171  -47.91
662.706707  0.74519  -49.61
665.161161  0.73809  -50.98
667.615616  0.73260  -52.50
670.070070  0.72588  -54.02
672.524525  0.72135  -55.46
674.978979  0.71669  -57.01
677.433433  0.71215  -58.46
679.887888  0.70855  -59.95
682.342342  0.70203  -61.76
684.796797  0.69743  -63.51
687.251251  0.69088  -65.15
689.705706  0.68241  -66.86
692.160160  0.67131  -68.37
694.614615  0.66080  -69.87
697.069069  0.64919  -71.21
699.523524  0.63856  -72.18
701.977978  0.62707  -73.23
704.432432  0.62105  -74.21
706.886887  0.61417  -75.15
709.341341  0.60645  -75.94
711.795796  0.59909  -76.86
714.250250  0.59254  -77.63
716.704705  0.58580  -78.29
719.159159  0.57855  -78.79
721.613614  0.57580  -79.12
724.068068  0.57323  -79.51
726.522523  0.57422  -79.84
728.976977  0.57676  -80.31
731.431431  0.57949  -80.99
733.885886  0.58389  -81.61
736.340340  0.58738  -82.50
738.794795  0.59232  -83.39
741.249249  0.59666  -84.20
743.703704  0.60240  -85.22
746.158158  0.60859  -86.20
748.612613  0.61577  -87.36
751.067067  0.62308  -88.77
753.521522  0.63064  -90.17
755.975976  0.63647  -91.62
758.430430  0.64286  -93.27
760.884885  0.65163  -94.85
763.339339  0.65945  -96.42
765.793794  0.66765  -98.33
768.248248  0.67398 -100.49
770.702703  0.68272 -102.53
773.157157  0.68937 -104.81
775.611612  0.69365 -107.31
778.066066  0.69799 -109.84
780.520521  0.69901 -112.48
782.974975  0.69829 -115.15
785.429429  0.69572 -117.84
787.883884  0.69102 -120.52
790.338338  0.68705 -123.40
792.792793  0.68061 -126.13
795.247247  0.67180 -129.06
797.701702  0.66219 -131.75
800.156156  0.65309 -134.60
802.610611  0.63905 -137.44
805.065065  0.62656 -140.34
807.519520  0.60976 -143.19
809.973974  0.59340 -145.96
812.428428  0.57881 -148.83
814.882883  0.55869 -151.89
817.337337  0.53813 -154.74
819.791792  0.51541 -158.17
822.246246  0.48919 -160.87
824.700701  0.46290 -163.98
827.155155  0.43667 -166.67
829.609610  0.40684 -169.63
832.064064  0.37361 -172.52
834.518519  0.33821 -174.64
836.972973  0.30464 -175.63
839.427427  0.27066 -176.08
841.881882  0.24105 -175.54
844.336336  0.21145 -174.26
846.790791  0.18511 -171.45
849.245245  0.16243 -166.78
851.699700  0.14498 -160.74
854.154154  0.12979 -153.15
856.608609  0.11906 -142.82
859.063063  0.11505 -130.16
861.517518  0.12266 -117.03
863.971972  0.14070 -107.62
866.426426  0.16213 -102.73
868.880881  0.18216 -100.19
871.335335  0.20025  -98.30
873.789790  0.21903  -96.28
876.244244  0.23987  -94.25
878.698699  0.26705  -93.48
881.153153  0.29596  -93.86
883.607608  0.32531  -95.09
886.062062  0.35165  -97.18
888.516517  0.37571  -99.59
890.970971  0.39434 -102.00
893.425425  0.41221 -104.12
895.879880  0.42934 -105.97
898.334334  0.44423 -107.95
900.788789  0.46206 -109.71
903.243243  0.47864 -111.81
905.697698  0.49168 -113.83
908.152152  0.50444 -115.69
910.606607  0.51822 -117.57
913.061061  0.53034 -119.66
915.515516  0.54115 -121.42
917.969970  0.55177 -123.31
920.424424  0.56045 -125.07
922.878879  0.56919 -126.96
925.333333  0.57954 -128.49
927.787788  0.58729 -130.22
930.242242  0.59930 -131.82
932.696697  0.60337 -133.47
935.151151  0.61314 -135.19
937.605606  0.62137 -136.70
940.060060  0.62520 -138.57
942.514515  0.63232 -139.91
944.968969  0.63514 -141.44
947.423423  0.64460 -142.94
949.877878  0.65285 -144.23
952.332332  0.65650 -145.66
954.786787  0.66664 -146.92
957.241241  0.67256 -148.31
959.695696  0.68209 -150.02
962.150150  0.69152 -151.51
964.604605  0.69772 -153.06
967.059059  0.70037 -154.73
969.513514  0.70747 -156.23
971.967968  0.71142 -157.71
974.422422  0.71616 -159.34
976.876877  0.72117 -160.76
979.331331  0.72475 -162.30
981.785786  0.73072 -163.90
984.240240  0.73303 -164.93
986.694695  0.73689 -166.56
989.149149  0.74094 -168.13
991.603604  0.74262 -169.22
994.058058  0.74851 -170.57
996.512513  0.75183 -172.12
998.966967  0.75503 -173.43
1001.421421  0.76046 -174.57
1003.875876  0.76546 -176.11
1006.330330  0.76808 -177.43
1008.784785  0.77295 -178.60
1011.239239  0.77694 -179.99
1013.693694  0.78177  178.50
1016.148148  0.78677  177.04
1018.602603  0.78846  175.54
1021.057057  0.79448  174.30
1023.511512  0.79588  172.74
1025.965966  0.79826  171.24
1028.420420  0.79912  169.98
1030.874875  0.80221  168.72
1033.329329  0.80494  167.23
1035.783784  0.80853  165.89
1038.238238  0.80951  164.49
1040.692693  0.81105  163.14
1043.147147  0.81282  161.96
1045.601602  0.81309  160.61
1048.056056  0.81586  159.43
1050.510511  0.81909  158.12
1052.964965  0.82378  156.79
1055.419419  0.82430  155.29
1057.873874  0.82570  153.86
1060.328328  0.82759  152.65
1062.782783  0.82898  151.26
1065.237237  0.82983  150.17
1067.691692  0.83263  148.90
1070.146146  0.83592  147.50
1072.600601  0.83851  146.48
1075.055055  0.84099  145.12
1077.509510  0.84373  143.59
1079.963964  0.84465  142.09
1082.418418  0.84626  140.77
1084.872873  0.84746  139.52
1087.327327  0.84649  138.19
1089.781782  0.84815  137.02
1092.236236  0.85015  135.80
1094.690691  0.85112  134.50
1097.145145  0.85157  133.21
1099.599600  0.85284  131.83
1102.054054  0.85355  130.68
1104.508509  0.85637  129.31
1106.962963  0.85866  128.03
1109.417417  0.86049  126.58
1111.871872  0.86291  125.41
1114.326326  0.86517  123.96
1116.780781  0.86839  122.60
1119.235235  0.86970  120.93
1121.689690  0.86968  119.52
1124.144144  0.87244  118.13
1126.598599  0.87227  116.64
1129.053053  0.86991  115.24
1131.507508  0.86772  113.79
1133.961962  0.86777  112.51
1136.416416  0.86419  111.10
1138.870871  0.86528  110.01
1141.325325  0.86667  108.53
1143.779780  0.86753  107.16
1146.234234  0.86880  105.89
1148.688689  0.86951  104.49
1151.143143  0.86933  103.19
1153.597598  0.86799  101.66
1156.052052  0.86742  100.29
1158.506507  0.86483   98.98
1160.960961  0.86375   97.50
1163.415415  0.86325   95.91
1165.869870  0.86243   94.66
1168.324324  0.86213   93.32
1170.778779  0.86127   91.93
1173.233233  0.86095   90.58
1175.687688  0.85968   88.97
1178.142142  0.85688   87.42
1180.596597  0.85232   86.06
1183.051051  0.84888   84.55
1185.505506  0.85000   83.13
1187.959960  0.84488   81.72
1190.414414  0.84070   80.12
1192.868869  0.83807   79.05
1195.323323  0.83542   77.51
1197.777778  0.82851   76.20
1200.232232  0.82864   74.73
1202.686687  0.82690   73.37
1205.141141  0.82704   72.13
1207.595596  0.82163   70.70
1210.050050  0.81991   69.13
1212.504505  0.81897   67.66
1214.958959  0.81666   66.44
1217.413413  0.81287   64.75
1219.867868  0.80905   63.17
1222.322322  0.80541   61.72
1224.776777  0.80308   60.06
1227.231231  0.79894   58.78
1229.685686  0.79216   57.02
1232.140140  0.78741   55.54
1234.594595  0.78282   54.02
1237.049049  0.77766   52.56
1239.503504  0.77158   51.20
1241.957958  0.77033   49.54
1244.412412  0.76343   48.44
1246.866867  0.76014   46.91
1249.321321  0.75474   45.40
1251.775776  0.75090   43.92
1254.230230  0.74874   42.82
1256.684685  0.74269   40.99
1259.139139  0.73709   39.33
1261.593594  0.73218   38.09
1264.048048  0.72189   36.75
1266.502503  0.71527   35.54
1268.956957  0.71114   34.03
1271.411411  0.70621   32.84
1273.865866  0.70090   31.70
1276.320320  0.69793   30.42
1278.774775  0.69393   29.31
1281.229229  0.69409   28.08
1283.683684  0.69264   26.74
1286.138138  0.68880   25.41
1288.592593  0.69004   24.20
1291.047047  0.68790   22.73
1293.501502  0.68436   21.33
1295.955956  0.68449   19.95
1298.410410  0.68265   19.10
1300.864865  0.68408   17.07
1303.319319  0.68307   15.50
1305.773774  0.68152   13.91
1308.228228  0.68232   12.51
1310.682683  0.68232   11.08
1313.137137  0.68254    9.32
1315.591592  0.68391    7.86
1318.046046  0.68436    6.30
1320.500501  0.68544    4.63
1322.954955  0.68722    2.60
1325.409409  0.68801    0.92
1327.863864  0.68930   -0.74
1330.318318  0.69091   -2.78
1332.772773  0.69185   -4.78
1335.227227  0.69349   -6.78
1337.681682  0.69292   -8.66
1340.136136  0.69323  -10.79
1342.590591  0.69251  -12.80
1345.045045  0.69228  -14.94
1347.499499  0.69070  -17.00
1349.953954  0.69024  -18.98
1352.408408  0.69007  -21.03
1354.862863  0.68852  -23.25
1357.317317  0.68729  -25.09
1359.771772  0.68888  -27.36
1362.226226  0.68787  -29.38
1364.680681  0.68648  -31.57
1367.135135  0.68583  -33.76
1369.589590  0.68646  -36.04
1372.044044  0.68410  -38.08
1374.498498  0.68415  -40.26
1376.952953  0.68098  -42.64
1379.407407  0.68174  -44.73
1381.861862  0.68243  -46.91
1384.316316  0.68064  -49.24
1386.770771  0.68242  -51.64
1389.225225  0.68186  -53.79
1391.679680  0.68177  -56.08
1394.134134  0.68224  -58.48
1396.588589  0.68283  -60.61
1399.043043  0.68327  -62.98
1401.497497  0.68366  -65.47
1403.951952  0.68643  -67.61
1406.406406  0.67399  -70.05
1408.860861  0.68241  -72.02
1411.315315  0.67944  -74.23
1413.769770  0.67919  -76.70
1416.224224  0.68132  -79.06
1418.678679  0.68091  -81.01
1421.133133  0.68440  -83.30
1423.587588  0.68511  -85.69
1426.042042  0.68538  -87.96
1428.496496  0.68687  -89.85
1430.950951  0.68433  -92.07
1433.405405  0.68531  -94.19
1435.859860  0.68863  -96.42
1438.314314  0.69179  -98.73
1440.768769  0.69024 -101.25
1443.223223  0.68720 -103.27
1445.677678  0.68991 -105.48
1448.132132  0.69380 -107.66
1450.586587  0.69434 -109.81
1453.041041  0.69539 -112.21
1455.495495  0.70094 -114.20
1457.949950  0.70370 -116.07
1460.404404  0.70612 -118.32
1462.858859  0.70890 -120.51
1465.313313  0.70866 -122.34
1467.767768  0.71248 -124.56
1470.222222  0.71352 -126.71
1472.676677  0.71582 -128.41
1475.131131  0.71834 -130.47
1477.585586  0.72157 -132.64
1480.040040  0.72459 -134.13
1482.494494  0.72951 -136.14
1484.948949  0.73184 -138.13
1487.403403  0.73611 -140.03
1489.857858  0.73914 -142.09
1492.312312  0.74186 -143.94
1494.766767  0.74552 -145.79
1497.221221  0.74890 -147.60
1499.675676  0.75302 -149.43
1502.130130  0.75482 -151.27
1504.584585  0.75937 -153.05
1507.039039  0.76280 -154.94
1509.493493  0.76535 -156.39
1511.947948  0.77020 -158.44
1514.402402  0.77777 -160.00
1516.856857  0.77675 -161.83
1519.311311  0.78186 -163.54
1521.765766  0.78408 -165.29
1524.220220  0.78828 -166.71
1526.674675  0.79323 -168.51
1529.129129  0.79619 -170.13
1531.583584  0.80048 -171.60
1534.038038  0.80585 -173.58
1536.492492  0.80989 -174.96
1538.946947  0.81443 -176.55
1541.401401  0.81816 -178.33
1543.855856  0.82174 -179.76
1546.310310  0.82596  178.64
1548.764765  0.82877  177.27
1551.219219  0.83277  175.62
1553.673674  0.83665  174.31
1556.128128  0.84097  172.52
1558.582583  0.84486  171.11
1561.037037  0.84991  169.43
1563.491491  0.85207  168.18
1565.945946  0.85850  166.56
1568.400400  0.86261  165.13
1570.854855  0.86654  163.57
1573.309309  0.86978  162.62
1575.763764  0.87285  161.24
1578.218218  0.87593  159.45
1580.672673  0.87974  158.03
1583.127127  0.88146  156.85
1585.581582  0.88701  155.55
1588.036036  0.88916  153.84
1590.490490  0.89202  152.91
1592.944945  0.89664  151.40
1595.399399  0.89844  149.91
1597.853854  0.90059  148.40
1600.308308  0.90518  147.09
1602.762763  0.90912  145.86
1605.217217  0.91024  144.64
1607.671672  0.91607  143.30
1610.126126  0.91987  141.87
1612.580581  0.92594  140.86
1615.035035  0.92465  139.62
1617.489489  0.92971  138.48
1619.943944  0.93138  137.31
1622.398398  0.93765  137.06
1624.852853  0.93808  134.66
1627.307307  0.94000  132.99
1629.761762  0.94340  132.07
1632.216216  0.94445  130.90
1634.670671  0.94843  129.57
1637.125125  0.94842  128.54
1639.579580  0.95645  127.50
1642.034034  0.95806  126.04
1644.488488  0.95956  124.86
1646.942943  0.96296  123.86
1649.397397  0.96466  122.68
1651.851852  0.96539  121.43
1654.306306  0.96993  120.26
1656.760761  0.97009  119.12
1659.215215  0.97439  118.02
1661.669670  0.97242  116.69
1664.124124  0.97513  115.56
1666.578579  0.97804  114.51
1669.033033  0.98515  113.39
1671.487487  0.98473  112.26
1673.941942  0.98606  111.16
1676.396396  0.98563  110.02
1678.850851  0.98878  108.81
1681.305305  0.98945  107.65
1683.759760  0.99197  106.64
1686.214214  0.99175  105.84
1688.668669  0.99512  104.51
1691.123123  0.99721  103.46
1693.577578  0.99511  102.15
1696.032032  0.99886  101.29
1698.486486  0.99863  100.06
1700.940941  0.99764   99.26
1703.395395  1.00357   98.13
1705.849850  1.00060   96.94
1708.304304  1.00300   95.99
1710.758759  1.00537   94.77
1713.213213  1.00477   93.95
1715.667668  1.00595   92.65
1718.122122  1.00750   91.73
1720.576577  1.00871   90.98
1723.031031  1.00937   89.90
1725.485485  1.01261   88.75
1727.939940  1.00818   87.64
1730.394394  1.03286   87.23
1732.848849  1.01311   85.83
1735.303303  1.01031   84.42
1737.757758  1.01207   83.77
1740.212212  1.01371   82.63
1742.666667  1.01260   81.84
1745.121121  1.01197   80.49
1747.575576  1.01316   80.06
1750.030030  1.01675   78.88
1752.484484  1.02047   77.96
1754.938939  1.01266   76.75
1757.393393  1.01411   75.70
1759.847848  1.01002   74.84
1762.302302  1.01415   73.85
1764.756757  1.00897   72.63
1767.211211  1.00947   71.56
1769.665666  1.01391   70.74
1772.120120  1.00951   69.92
1774.574575  1.00723   68.86
1777.029029  1.00831   67.89
1779.483483  1.00686   66.99
1781.937938  1.00773   65.76
1784.392392  1.00278   64.86
1786.846847  1.00100   64.06
1789.301301  0.99898   62.90
1791.755756  0.99818   61.95
1794.210210  0.99874   60.94
1796.664665  0.99170   60.05
1799.119119  0.99303   58.94
1801.573574  0.99192   58.40
1804.028028  0.98952   57.34
1806.482482  0.98716   56.40
1808.936937  0.98389   55.41
1811.391391  0.98187   54.31
1813.845846  0.97820   53.46
1816.300300  0.97655   52.50
1818.754755  0.97351   51.56
1821.209209  0.96896   50.74
1823.663664  0.96913   49.65
