# MHz S MA R 50
!   freq        S11       
108.000000  0.98308  -55.89
110.454454  0.98290  -57.24
112.908909  0.98263  -58.61
115.363363  0.98363  -60.00
117.817818  0.98262  -61.39
120.272272  0.98220  -62.83
122.726727  0.98210  -64.23
125.181181  0.98159  -65.63
127.635636  0.98121  -67.10
130.090090  0.98041  -68.50
132.544545  0.97996  -69.93
134.998999  0.97939  -71.32
137.453453  0.97810  -72.71
139.907908  0.97772  -74.17
142.362362  0.97567  -75.53
144.816817  0.97455  -77.02
147.271271  0.97384  -78.51
149.725726  0.97218  -80.00
152.180180  0.97131  -81.45
154.634635  0.96957  -82.95
157.089089  0.96833  -84.40
159.543544  0.96681  -85.96
161.997998  0.96439  -87.51
164.452452  0.96301  -88.98
166.906907  0.96003  -90.45
169.361361  0.95871  -91.94
171.815816  0.95720  -93.48
174.270270  0.95601  -95.00
176.724725  0.95416  -96.58
179.179179  0.95189  -98.18
181.633634  0.94983  -99.76
184.088088  0.94725 -101.34
186.542543  0.94491 -102.92
188.996997  0.94260 -104.54
191.451451  0.93956 -106.22
193.905906  0.93625 -107.70
196.360360  0.93312 -109.35
198.814815  0.92941 -110.96
201.269269  0.92746 -112.56
203.723724  0.92424 -114.26
206.178178  0.92226 -115.93
208.632633  0.91889 -117.70
211.087087  0.91404 -119.55
213.541542  0.90764 -121.34
215.995996  0.90022 -123.08
218.450450  0.89291 -124.71
220.904905  0.88650 -126.26
223.359359  0.88036 -127.89
225.813814  0.87356 -129.49
228.268268  0.86599 -131.12
230.722723  0.85875 -132.60
233.177177  0.85113 -134.07
235.631632  0.84513 -135.38
238.086086  0.84093 -136.78
240.540541  0.83743 -138.27
242.994995  0.83344 -139.73
245.449449  0.83102 -141.26
247.903904  0.82807 -142.87
250.358358  0.82415 -144.63
252.812813  0.81845 -146.35
255.267267  0.81188 -148.06
257.721722  0.80399 -149.78
260.176176  0.79235 -151.31
262.630631  0.78367 -152.50
265.085085  0.77791 -153.73
267.539540  0.77196 -155.05
269.993994  0.76567 -156.37
272.448448  0.75697 -157.45
274.902903  0.75468 -157.87
277.357357  0.75998 -158.47
279.811812  0.78225 -159.19
282.266266  0.82459 -162.14
284.720721  0.83881 -169.62
287.175175  0.75020 -176.94
289.629630  0.63522 -176.09
292.084084  0.59346 -169.15
294.538539  0.61716 -163.68
296.992993  0.66456 -161.83
299.447447  0.71013 -162.53
301.901902  0.74620 -164.31
304.356356  0.77519 -166.49
306.810811  0.79770 -169.01
309.265265  0.81436 -171.63
311.719720  0.82699 -174.09
314.174174  0.83748 -176.60
316.628629  0.84561 -179.08
319.083083  0.85266  178.54
321.537538  0.85903  176.28
323.991992  0.86637  173.98
326.446446  0.87304  171.62
328.900901  0.87949  169.25
331.355355  0.88576  166.95
333.809810  0.89221  164.51
336.264264  0.90211  162.02
338.718719  0.90882  159.45
341.173173  0.91586  156.86
343.627628  0.92301  154.08
346.082082  0.92894  151.25
348.536537  0.93393  148.37
350.990991  0.93841  145.41
353.445445  0.94071  142.34
355.899900  0.94174  139.31
358.354354  0.94219  136.15
360.808809  0.94335  133.02
363.263263  0.94158  129.80
365.717718  0.93953  126.62
368.172172  0.93745  123.31
370.626627  0.93180  119.99
373.081081  0.92734  116.57
375.535536  0.92204  113.24
377.989990  0.91636  109.87
380.444444  0.90955  106.38
382.898899  0.90242  102.87
385.353353  0.89450   99.41
387.807808  0.88805   95.77
390.262262  0.87875   91.98
392.716717  0.86989   88.12
395.171171  0.85954   84.22
397.625626  0.84766   80.27
400.080080  0.83613   76.36
402.534535  0.82713   72.26
404.988989  0.81680   67.81
407.443443  0.80133   63.10
409.897898  0.78342   58.14
412.352352  0.76242   53.14
414.806807  0.73776   48.12
417.261261  0.71120   43.05
419.715716  0.68411   38.20
422.170170  0.65958   33.39
424.624625  0.63612   28.17
427.079079  0.61065   22.80
429.533534  0.58337   17.34
431.987988  0.56386   11.51
434.442442  0.52933    5.56
436.896897  0.50356   -0.84
439.351351  0.47625   -7.53
441.805806  0.44880  -14.64
444.260260  0.41981  -21.98
446.714715  0.39505  -29.62
449.169169  0.37283  -37.59
451.623624  0.35277  -46.03
454.078078  0.33370  -55.49
456.532533  0.31490  -65.40
458.986987  0.29835  -75.50
461.441441  0.28597  -85.81
463.895896  0.27730  -96.34
466.350350  0.27270 -106.86
468.804805  0.27260 -116.87
471.259259  0.27557 -126.06
473.713714  0.28370 -135.56
476.168168  0.29460 -145.34
478.622623  0.30700 -155.12
481.077077  0.32008 -164.65
483.531532  0.32826 -173.86
485.985986  0.33331  178.12
488.440440  0.33443  171.13
490.894895  0.33538  165.62
493.349349  0.33965  161.34
495.803804  0.34965  157.48
498.258258  0.36257  153.49
500.712713  0.37603  149.04
503.167167  0.38691  144.84
505.621622  0.39653  140.88
508.076076  0.40560  137.48
510.530531  0.41728  134.29
512.984985  0.43141  131.02
515.439439  0.44788  127.37
517.893894  0.46192  123.33
520.348348  0.47205  119.33
522.802803  0.47982  115.32
525.257257  0.48606  111.88
527.711712  0.49127  108.86
530.166166  0.49775  106.01
532.620621  0.50548  103.39
535.075075  0.51410  100.68
537.529530  0.52531   97.91
539.983984  0.53649   95.17
542.438438  0.54793   92.04
544.892893  0.55881   88.86
547.347347  0.56802   85.64
549.801802  0.57462   82.32
552.256256  0.58030   79.06
554.710711  0.58369   75.94
557.165165  0.58581   72.97
559.619620  0.58819   70.21
562.074074  0.59149   67.55
564.528529  0.59542   64.76
566.982983  0.59915   62.15
569.437437  0.60281   59.45
571.891892  0.60611   56.91
574.346346  0.60955   54.50
576.800801  0.61530   51.94
579.255255  0.61826   49.40
581.709710  0.62455   46.99
584.164164  0.62947   44.58
586.618619  0.63546   41.96
589.073073  0.64464   39.39
591.527528  0.65253   36.71
593.981982  0.66142   33.96
596.436436  0.66749   31.06
598.890891  0.67604   28.02
601.345345  0.68075   25.10
603.799800  0.68844   22.06
606.254254  0.69368   18.89
608.708709  0.69730   15.76
611.163163  0.70201   12.52
613.617618  0.70251    9.48
616.072072  0.70439    6.21
618.526527  0.70577    2.91
620.980981  0.70525   -0.12
623.435435  0.70532   -3.31
625.889890  0.70588   -6.35
628.344344  0.70628   -9.58
630.798799  0.70358  -12.89
633.253253  0.70366  -15.89
635.707708  0.70073  -18.95
638.162162  0.69752  -22.00
640.616617  0.69665  -24.82
643.071071  0.69371  -27.49
645.525526  0.69228  -30.30
647.979980  0.68330  -33.52
650.434434  0.68563  -36.11
652.888889  0.68327  -38.81
655.343343  0.68201  -41.46
657.797798  0.68141  -44.37
660.252252  0.68246  -47.24
662.706707  0.68211  -50.03
665.161161  0.68298  -52.86
667.615616  0.68387  -55.89
670.070070  0.68369  -58.84
672.524525  0.68462  -61.82
674.978979  0.68476  -64.86
677.433433  0.68466  -67.88
679.887888  0.68425  -70.94
682.342342  0.68312  -73.95
684.796797  0.68137  -77.16
687.251251  0.68069  -80.06
689.705706  0.68022  -83.02
692.160160  0.67875  -85.93
694.614615  0.67822  -88.90
697.069069  0.67791  -91.95
699.523524  0.67836  -94.74
701.977978  0.67948  -97.71
704.432432  0.68139 -100.86
706.886887  0.68392 -104.02
709.341341  0.68498 -107.12
711.795796  0.68529 -110.47
714.250250  0.68709 -113.76
716.704705  0.68494 -117.05
719.159159  0.68173 -120.39
721.613614  0.68115 -123.63
724.068068  0.67862 -126.95
726.522523  0.67768 -130.11
728.976977  0.67688 -133.39
731.431431  0.67400 -136.90
733.885886  0.67202 -140.12
736.340340  0.66797 -143.56
738.794795  0.66517 -146.81
741.249249  0.66076 -150.08
743.703704  0.65594 -153.49
746.158158  0.64959 -156.83
748.612613  0.64585 -160.23
751.067067  0.63916 -163.48
753.521522  0.63342 -166.86
755.975976  0.62592 -170.28
758.430430  0.61805 -173.85
760.884885  0.61162 -177.27
763.339339  0.60474  179.25
765.793794  0.59139  175.40
768.248248  0.57637  171.55
770.702703  0.56446  168.06
773.157157  0.54792  164.08
775.611612  0.52615  160.06
778.066066  0.49875  155.88
780.520521  0.45904  151.59
782.974975  0.40495  148.46
785.429429  0.33970  149.89
787.883884  0.29843  160.60
790.338338  0.33069  172.32
792.792793  0.39750  174.31
795.247247  0.44706  170.23
797.701702  0.47591  165.02
800.156156  0.48942  159.97
802.610611  0.49477  155.43
805.065065  0.49481  151.46
807.519520  0.49007  147.73
809.973974  0.48501  144.25
812.428428  0.47853  141.00
814.882883  0.47081  138.00
817.337337  0.46303  135.18
819.791792  0.45474  132.20
822.246246  0.44582  129.61
824.700701  0.43659  126.77
827.155155  0.42868  124.17
829.609610  0.42028  121.69
832.064064  0.41149  118.87
834.518519  0.40086  116.02
836.972973  0.38876  113.42
839.427427  0.37531  110.82
841.881882  0.36185  108.59
844.336336  0.34824  106.10
846.790791  0.33569  104.03
849.245245  0.32258  102.08
851.699700  0.31033  100.00
854.154154  0.29678   97.76
856.608609  0.28236   95.42
859.063063  0.26624   93.56
861.517518  0.24877   91.88
863.971972  0.23207   91.24
866.426426  0.21674   90.81
868.880881  0.20232   90.82
871.335335  0.18824   90.84
873.789790  0.17533   91.62
876.244244  0.16251   93.14
878.698699  0.15128   94.78
881.153153  0.14203   97.56
883.607608  0.13508  100.39
886.062062  0.12832  103.27
888.516517  0.12138  106.27
890.970971  0.11534  110.22
893.425425  0.11089  115.21
895.879880  0.10820  120.69
898.334334  0.10748  126.61
900.788789  0.10948  132.40
903.243243  0.11350  137.60
905.697698  0.11897  141.85
908.152152  0.12597  145.71
910.606607  0.13428  148.79
913.061061  0.14287  151.52
915.515516  0.15150  153.77
917.969970  0.16099  155.95
920.424424  0.17341  158.21
922.878879  0.18728  159.43
925.333333  0.20213  159.47
927.787788  0.21607  159.21
930.242242  0.23044  158.69
932.696697  0.24144  158.31
935.151151  0.25502  157.70
937.605606  0.26934  157.42
940.060060  0.28291  156.61
942.514515  0.29800  155.45
944.968969  0.31141  154.41
947.423423  0.32654  153.27
949.877878  0.34220  152.17
952.332332  0.35669  150.73
954.786787  0.37274  149.56
957.241241  0.38812  147.87
959.695696  0.40116  146.30
962.150150  0.41391  144.92
964.604605  0.42836  143.52
967.059059  0.44088  141.91
969.513514  0.45607  140.53
971.967968  0.47203  138.61
974.422422  0.48973  136.67
976.876877  0.50530  134.67
979.331331  0.51807  132.45
981.785786  0.52894  130.32
984.240240  0.53768  128.56
986.694695  0.54940  126.55
989.149149  0.55863  124.49
991.603604  0.56701  122.57
994.058058  0.57401  120.67
996.512513  0.58173  118.83
998.966967  0.59008  117.29
1001.421421  0.59859  115.98
1003.875876  0.60604  114.36
1006.330330  0.61306  112.93
1008.784785  0.61834  111.45
1011.239239  0.62425  109.86
1013.693694  0.62965  108.21
1016.148148  0.63733  106.84
1018.602603  0.64340  105.63
1021.057057  0.65283  104.01
1023.511512  0.65986  102.64
1025.965966  0.66971  101.10
1028.420420  0.67766   99.47
1030.874875  0.68482   98.11
1033.329329  0.69201   96.35
1035.783784  0.69990   94.73
1038.238238  0.70344   93.14
1040.692693  0.71137   91.60
1043.147147  0.71690   89.98
1045.601602  0.72175   88.21
1048.056056  0.72958   86.77
1050.510511  0.73262   85.08
1052.964965  0.73867   83.34
1055.419419  0.74301   81.79
1057.873874  0.74824   80.34
1060.328328  0.75353   78.65
1062.782783  0.75746   77.02
1065.237237  0.76231   75.57
1067.691692  0.76754   74.02
1070.146146  0.77050   72.14
1072.600601  0.77562   70.88
1075.055055  0.78014   69.02
1077.509510  0.78408   67.42
1079.963964  0.78738   65.99
1082.418418  0.79232   64.15
1084.872873  0.79716   62.28
1087.327327  0.79833   60.59
1089.781782  0.80004   58.73
1092.236236  0.80602   57.35
1094.690691  0.80166   55.34
1097.145145  0.80084   53.73
1099.599600  0.80202   51.80
1102.054054  0.79992   50.17
1104.508509  0.79810   48.70
1106.962963  0.79860   46.88
1109.417417  0.79485   45.27
1111.871872  0.79433   43.72
1114.326326  0.79240   41.84
1116.780781  0.78998   40.27
1119.235235  0.78765   38.65
1121.689690  0.78546   37.08
1124.144144  0.78462   35.21
1126.598599  0.78201   33.80
1129.053053  0.78032   31.82
1131.507508  0.77752   29.84
1133.961962  0.77257   27.96
1136.416416  0.76802   26.26
1138.870871  0.76334   24.29
1141.325325  0.75777   22.20
1143.779780  0.75027   20.13
1146.234234  0.74011   18.04
1148.688689  0.73036   15.96
1151.143143  0.71785   13.99
1153.597598  0.70500   11.75
1156.052052  0.69376    9.60
1158.506507  0.67500    7.49
1160.960961  0.65661    5.24
1163.415415  0.63461    3.07
1165.869870  0.60841    0.91
1168.324324  0.57825   -0.74
1170.778779  0.54799   -2.03
1173.233233  0.51447   -2.85
1175.687688  0.48170   -2.78
1178.142142  0.44947   -1.52
1180.596597  0.42285    1.14
1183.051051  0.40704    5.10
1185.505506  0.41053    9.54
1187.959960  0.43209   13.13
1190.414414  0.46388   13.89
1192.868869  0.49412   12.72
1195.323323  0.51341    9.63
1197.777778  0.51896    5.90
1200.232232  0.51002    2.20
1202.686687  0.49072   -0.62
1205.141141  0.46236   -2.69
1207.595596  0.43353   -3.37
1210.050050  0.40663   -2.28
1212.504505  0.38645   -0.57
1214.958959  0.37419    2.43
1217.413413  0.36838    5.60
1219.867868  0.37143    8.65
1222.322322  0.37998   11.45
1224.776777  0.39428   13.42
1227.231231  0.41396   14.74
1229.685686  0.43165   14.94
1232.140140  0.45162   14.57
1234.594595  0.46981   14.05
1237.049049  0.48624   12.78
1239.503504  0.50207   11.78
1241.957958  0.51787   10.46
1244.412412  0.52946    9.02
1246.866867  0.54100    7.27
1249.321321  0.55098    5.58
1251.775776  0.56129    3.88
1254.230230  0.56850    2.20
1256.684685  0.57518    0.19
1259.139139  0.58018   -1.89
1261.593594  0.58430   -3.34
1264.048048  0.58538   -5.41
1266.502503  0.58747   -6.96
1268.956957  0.59039   -8.76
1271.411411  0.59150  -10.53
1273.865866  0.59236  -12.15
1276.320320  0.59135  -13.86
1278.774775  0.59240  -15.61
1281.229229  0.59257  -17.30
1283.683684  0.59227  -19.00
1286.138138  0.59182  -20.89
1288.592593  0.59185  -22.48
1291.047047  0.59134  -24.39
1293.501502  0.58877  -26.16
1295.955956  0.58639  -27.90
1298.410410  0.57971  -29.86
1300.864865  0.58084  -31.60
1303.319319  0.57624  -33.56
1305.773774  0.57253  -35.40
1308.228228  0.56794  -37.19
1310.682683  0.56185  -38.93
1313.137137  0.55745  -40.61
1315.591592  0.55224  -42.33
1318.046046  0.54713  -44.04
1320.500501  0.54270  -46.08
1322.954955  0.53758  -47.77
1325.409409  0.53125  -49.73
1327.863864  0.52550  -51.57
1330.318318  0.51917  -53.39
1332.772773  0.51124  -55.37
1335.227227  0.50398  -57.28
1337.681682  0.49495  -58.93
1340.136136  0.48721  -60.58
1342.590591  0.47860  -62.48
1345.045045  0.47267  -64.01
1347.499499  0.46442  -65.83
1349.953954  0.45766  -67.54
1352.408408  0.45203  -69.53
1354.862863  0.44406  -71.55
1357.317317  0.43692  -73.47
1359.771772  0.42929  -75.93
1362.226226  0.42029  -77.96
1364.680681  0.40988  -80.12
1367.135135  0.39948  -82.41
1369.589590  0.38994  -84.60
1372.044044  0.37805  -86.86
1374.498498  0.36510  -89.00
1376.952953  0.35383  -91.32
1379.407407  0.34188  -93.53
1381.861862  0.32927  -95.57
1384.316316  0.31560  -97.74
1386.770771  0.30333  -99.82
1389.225225  0.28871 -101.91
1391.679680  0.27646 -103.80
1394.134134  0.26342 -105.96
1396.588589  0.24867 -108.07
1399.043043  0.23360 -109.76
1401.497497  0.21959 -111.60
1403.951952  0.20425 -113.40
1406.406406  0.18837 -115.87
1408.860861  0.17471 -116.12
1411.315315  0.16072 -116.91
1413.769770  0.14592 -118.02
1416.224224  0.13374 -118.29
1418.678679  0.11941 -118.94
1421.133133  0.10621 -118.68
1423.587588  0.09188 -117.81
1426.042042  0.07786 -115.67
1428.496496  0.06491 -110.76
1430.950951  0.05418 -102.26
1433.405405  0.04709  -88.76
1435.859860  0.04464  -71.98
1438.314314  0.04851  -57.77
1440.768769  0.05454  -45.80
1443.223223  0.06291  -38.17
1445.677678  0.07290  -33.20
1448.132132  0.08368  -29.70
1450.586587  0.09537  -27.78
1453.041041  0.10702  -27.29
1455.495495  0.11890  -27.68
1457.949950  0.12990  -28.66
1460.404404  0.13966  -29.23
1462.858859  0.15036  -30.56
1465.313313  0.16009  -31.55
1467.767768  0.17071  -33.27
1470.222222  0.18139  -35.66
1472.676677  0.18994  -37.62
1475.131131  0.19785  -39.50
1477.585586  0.20594  -41.49
1480.040040  0.21343  -43.26
1482.494494  0.22138  -44.99
1484.948949  0.22747  -46.97
1487.403403  0.23588  -49.20
1489.857858  0.24261  -51.23
1492.312312  0.24813  -53.18
1494.766767  0.25361  -55.19
1497.221221  0.25939  -57.27
1499.675676  0.26406  -58.92
1502.130130  0.27061  -60.74
1504.584585  0.27579  -62.27
1507.039039  0.28230  -63.93
1509.493493  0.28877  -65.75
1511.947948  0.29672  -67.71
1514.402402  0.29874  -69.74
1516.856857  0.30896  -72.21
1519.311311  0.31481  -74.47
1521.765766  0.31863  -76.65
1524.220220  0.32467  -78.52
1526.674675  0.32992  -80.81
1529.129129  0.33455  -83.06
1531.583584  0.33974  -85.09
1534.038038  0.34293  -87.76
1536.492492  0.34622  -89.82
1538.946947  0.34842  -91.87
1541.401401  0.35259  -93.98
1543.855856  0.35411  -95.93
1546.310310  0.35676  -98.07
1548.764765  0.36044 -100.15
1551.219219  0.36169 -102.29
1553.673674  0.36480 -104.09
1556.128128  0.36766 -106.14
1558.582583  0.36882 -108.11
1561.037037  0.37285 -109.69
1563.491491  0.37477 -111.56
1565.945946  0.38032 -113.34
1568.400400  0.38406 -115.63
1570.854855  0.38764 -117.79
1573.309309  0.38919 -119.92
1575.763764  0.39173 -121.86
1578.218218  0.39273 -124.17
1580.672673  0.39414 -126.15
1583.127127  0.39457 -128.20
1585.581582  0.39638 -129.83
1588.036036  0.39744 -131.59
1590.490490  0.40016 -133.11
1592.944945  0.40241 -134.93
1595.399399  0.40475 -136.50
1597.853854  0.40779 -138.41
1600.308308  0.41109 -140.28
1602.762763  0.41412 -142.06
1605.217217  0.41630 -143.89
1607.671672  0.41947 -145.68
1610.126126  0.42112 -147.35
1612.580581  0.42475 -148.78
1615.035035  0.42837 -151.13
1617.489489  0.43236 -152.92
1619.943944  0.43532 -154.64
1622.398398  0.43637 -156.66
1624.852853  0.44249 -158.45
1627.307307  0.44492 -160.03
1629.761762  0.44729 -161.58
1632.216216  0.45023 -163.26
1634.670671  0.45300 -165.12
1637.125125  0.45653 -166.99
1639.579580  0.45903 -168.31
1642.034034  0.46269 -170.58
1644.488488  0.46536 -172.02
1646.942943  0.46881 -174.22
1649.397397  0.47087 -175.71
1651.851852  0.47366 -177.89
1654.306306  0.47702 -179.66
1656.760761  0.47889  178.36
1659.215215  0.48048  176.76
1661.669670  0.48197  174.93
1664.124124  0.48349  173.17
1666.578579  0.48427  171.54
1669.033033  0.48554  170.09
1671.487487  0.48564  168.21
1673.941942  0.48772  166.60
1676.396396  0.48899  165.23
1678.850851  0.49010  163.83
1681.305305  0.49101  162.39
1683.759760  0.49390  160.66
1686.214214  0.49808  159.54
1688.668669  0.50047  157.73
1691.123123  0.50350  156.25
1693.577578  0.50522  154.59
1696.032032  0.50931  153.21
1698.486486  0.51418  151.31
1700.940941  0.51513  149.90
1703.395395  0.51769  148.42
1705.849850  0.52136  146.67
1708.304304  0.52436  145.14
1710.758759  0.52728  143.81
1713.213213  0.52726  142.12
1715.667668  0.53065  140.74
1718.122122  0.53117  139.13
1720.576577  0.53290  137.72
1723.031031  0.53453  135.96
1725.485485  0.53584  134.25
1727.939940  0.53410  133.05
1730.394394  0.54185  130.10
1732.848849  0.53641  129.87
1735.303303  0.53645  128.45
1737.757758  0.53731  127.11
1740.212212  0.53588  125.75
1742.666667  0.53659  124.42
1745.121121  0.53743  123.12
1747.575576  0.53891  121.72
1750.030030  0.54036  120.58
1752.484484  0.54200  118.80
1754.938939  0.53932  117.64
1757.393393  0.53875  116.70
1759.847848  0.53918  115.00
1762.302302  0.54113  113.76
1764.756757  0.54089  112.65
1767.211211  0.54686  111.43
1769.665666  0.54758  110.31
1772.120120  0.54907  108.82
1774.574575  0.55003  107.54
1777.029029  0.55223  106.03
1779.483483  0.55522  104.34
1781.937938  0.55598  103.09
1784.392392  0.55216  101.90
1786.846847  0.55145  100.17
1789.301301  0.55120   98.50
1791.755756  0.54770   97.09
1794.210210  0.54711   95.86
1796.664665  0.54182   94.38
1799.119119  0.54047   93.48
1801.573574  0.54150   92.65
1804.028028  0.53920   91.22
1806.482482  0.53793   90.08
1808.936937  0.53827   88.97
1811.391391  0.53915   87.45
1813.845846  0.53548   86.34
1816.300300  0.53676   85.33
1818.754755  0.53692   83.46
1821.209209  0.53402   82.46
1823.663664  0.53454   81.17
