# MHz S MA R 50
!   freq        S11       
860.000000  0.09507 -178.85
860.100251  0.09403 -178.74
860.200501  0.09306 -178.69
860.300752  0.09080 -178.38
860.401003  0.08227  179.20
860.501253  0.08187 -179.83
860.601504  0.08019 -178.65
860.701754  0.07825 -176.71
860.802005  0.07825 -172.94
860.902256  0.08006 -169.22
861.002506  0.08440 -166.82
861.102757  0.08980 -166.60
861.203008  0.09373 -168.94
861.303258  0.09483 -170.20
861.403509  0.09365 -172.70
861.503759  0.09234 -173.55
861.604010  0.09293 -174.24
861.704261  0.09112 -174.91
861.804511  0.08865 -177.35
861.904762  0.08732 -177.45
862.005013  0.08648 -174.89
862.105263  0.08143 -173.57
862.205514  0.07707 -173.00
862.305764  0.07778 -176.69
862.406015  0.07977 -173.82
862.506266  0.07908 -175.61
862.606516  0.07466 -170.72
862.706767  0.07045 -171.33
862.807018  0.06458 -168.80
862.907268  0.06249 -169.77
863.007519  0.06580 -165.64
863.107769  0.05917 -164.95
863.208020  0.05581 -173.25
863.308271  0.06371 -177.64
863.408521  0.06849 -172.45
863.508772  0.06859 -161.01
863.609023  0.06138 -154.27
863.709273  0.06221 -147.83
863.809524  0.06260 -152.79
863.909774  0.06608 -154.89
864.010025  0.06459 -157.90
864.110276  0.06207 -161.27
864.210526  0.06105 -161.38
864.310777  0.06382 -155.16
864.411028  0.06603 -154.18
864.511278  0.06482 -155.21
864.611529  0.06287 -156.04
864.711779  0.06177 -154.39
864.812030  0.06076 -152.00
864.912281  0.06122 -149.49
865.012531  0.06061 -148.45
865.112782  0.05999 -147.30
865.213033  0.06032 -145.23
865.313283  0.06012 -142.18
865.413534  0.05963 -137.31
865.513784  0.06003 -133.66
865.614035  0.06017 -131.61
865.714286  0.05728 -132.03
865.814536  0.05807 -137.81
865.914787  0.05928 -140.12
866.015038  0.05874 -135.72
866.115288  0.05885 -132.33
866.215539  0.05992 -126.68
866.315789  0.05999 -125.05
866.416040  0.05787 -126.55
866.516291  0.06051 -127.76
866.616541  0.06435 -124.47
866.716792  0.06292 -120.12
866.817043  0.06085 -120.57
866.917293  0.06242 -119.48
867.017544  0.06451 -118.07
867.117794  0.06616 -116.86
867.218045  0.06560 -115.10
867.318296  0.06554 -113.03
867.418546  0.06563 -111.49
867.518797  0.06887 -108.99
867.619048  0.07436 -106.70
867.719298  0.07729 -105.35
867.819549  0.07834 -106.55
867.919799  0.07440 -104.79
868.020050  0.07158 -104.47
868.120301  0.07213 -101.91
868.220551  0.07404 -101.41
868.320802  0.07687 -102.50
868.421053  0.08039 -102.46
868.521303  0.08433 -102.45
868.621554  0.08766 -101.95
868.721805  0.09003 -103.16
868.822055  0.09069 -105.39
868.922306  0.09007 -108.00
869.022556  0.08650 -109.06
869.122807  0.08412 -109.34
869.223058  0.08491 -109.83
869.323308  0.08772 -109.50
869.423559  0.08758 -108.28
869.523810  0.08932 -107.23
869.624060  0.09087 -105.51
869.724311  0.09256 -104.25
869.824561  0.09324 -103.80
869.924812  0.09154 -101.75
870.025063  0.09113  -97.55
870.125313  0.09557  -95.82
870.225564  0.09636  -96.61
870.325815  0.09589  -94.47
870.426065  0.09756  -93.57
870.526316  0.09763  -94.03
870.626566  0.09683  -93.29
870.726817  0.09750  -92.69
870.827068  0.09770  -92.68
870.927318  0.09800  -92.96
871.027569  0.10033  -93.06
871.127820  0.10124  -90.93
871.228070  0.10020  -90.65
871.328321  0.10325  -91.55
871.428571  0.10327  -91.06
871.528822  0.10475  -92.43
871.629073  0.10750  -93.75
871.729323  0.10712  -93.24
871.829574  0.10748  -91.47
871.929825  0.10967  -90.71
872.030075  0.11114  -90.31
872.130326  0.11182  -89.99
872.230576  0.11304  -89.61
872.330827  0.11617  -88.92
872.431078  0.11933  -87.88
872.531328  0.12113  -88.09
872.631579  0.12323  -87.44
872.731830  0.11951  -86.43
872.832080  0.12109  -86.17
872.932331  0.12612  -86.20
873.032581  0.13014  -87.06
873.132832  0.12948  -86.38
873.233083  0.12778  -86.96
873.333333  0.12985  -88.02
873.433584  0.13252  -88.43
873.533835  0.13295  -88.51
873.634085  0.13356  -88.03
873.734336  0.13476  -87.95
873.834586  0.13357  -88.68
873.934837  0.13459  -89.28
874.035088  0.13789  -89.75
874.135338  0.14139  -89.38
874.235589  0.14399  -89.34
874.335840  0.14668  -90.02
874.436090  0.15056  -90.61
874.536341  0.15141  -91.16
874.636591  0.14690  -91.67
874.736842  0.14631  -89.70
874.837093  0.14900  -87.52
874.937343  0.15324  -86.31
875.037594  0.15698  -86.16
875.137845  0.15832  -86.05
875.238095  0.15982  -86.41
875.338346  0.15989  -86.97
875.438596  0.15946  -85.70
875.538847  0.15383  -86.54
875.639098  0.15149  -89.46
875.739348  0.15648  -91.42
875.839599  0.16129  -92.15
875.939850  0.15704  -90.12
876.040100  0.15477  -90.08
876.140351  0.15284  -90.22
876.240602  0.15594  -89.85
876.340852  0.15847  -90.07
876.441103  0.16256  -90.32
876.541353  0.16836  -90.00
876.641604  0.17403  -90.03
876.741855  0.17793  -90.18
876.842105  0.18061  -90.24
876.942356  0.18429  -88.64
877.042607  0.18423  -87.25
877.142857  0.17748  -87.58
877.243108  0.17569  -87.09
877.343358  0.17704  -86.60
877.443609  0.17915  -86.02
877.543860  0.18112  -86.71
877.644110  0.18290  -88.21
877.744361  0.18534  -89.14
877.844612  0.18519  -89.95
877.944862  0.18413  -90.50
878.045113  0.18380  -90.41
878.145363  0.18336  -89.83
878.245614  0.18482  -89.01
878.345865  0.18647  -88.40
878.446115  0.18542  -87.52
878.546366  0.18761  -87.32
878.646617  0.19218  -86.79
878.746867  0.20033  -87.43
878.847118  0.20253  -89.08
878.947368  0.20139  -88.93
879.047619  0.19962  -88.25
879.147870  0.19847  -87.93
879.248120  0.20045  -87.48
879.348371  0.20067  -87.58
879.448622  0.20073  -88.06
879.548872  0.19970  -88.42
879.649123  0.20192  -88.39
879.749373  0.20629  -88.96
879.849624  0.20874  -90.16
879.949875  0.20799  -91.29
880.050125  0.20674  -91.40
880.150376  0.20434  -90.95
880.250627  0.20517  -90.33
880.350877  0.20806  -90.38
880.451128  0.20953  -90.94
880.551378  0.20949  -91.12
880.651629  0.21009  -91.41
880.751880  0.21078  -91.38
880.852130  0.21248  -91.67
880.952381  0.21387  -91.62
881.052632  0.21609  -91.38
881.152882  0.21789  -91.28
881.253133  0.21860  -91.14
881.353383  0.22071  -90.84
881.453634  0.22219  -90.63
881.553885  0.22295  -90.29
881.654135  0.22269  -90.09
881.754386  0.22455  -89.87
881.854637  0.22639  -89.88
881.954887  0.22992  -90.22
882.055138  0.23296  -91.21
882.155388  0.23044  -92.60
882.255639  0.22569  -92.52
882.355890  0.22495  -91.01
882.456140  0.23163  -90.12
882.556391  0.23546  -91.28
882.656642  0.23262  -92.06
882.756892  0.23077  -91.35
882.857143  0.23407  -90.59
882.957393  0.23625  -91.28
883.057644  0.23372  -91.22
883.157895  0.23772  -90.86
883.258145  0.23864  -91.29
883.358396  0.24020  -91.14
883.458647  0.24168  -91.60
883.558897  0.24119  -91.34
883.659148  0.24477  -91.68
883.759398  0.24214  -92.34
883.859649  0.24044  -91.54
883.959900  0.24546  -91.14
884.060150  0.24751  -91.72
884.160401  0.24879  -91.41
884.260652  0.25043  -91.87
884.360902  0.25000  -92.09
884.461153  0.24998  -91.94
884.561404  0.25047  -92.05
884.661654  0.25252  -92.45
884.761905  0.25261  -92.65
884.862155  0.25343  -92.65
884.962406  0.25324  -92.49
885.062657  0.25481  -92.40
885.162907  0.25630  -92.33
885.263158  0.25809  -92.28
885.363409  0.25918  -92.41
885.463659  0.26024  -92.57
885.563910  0.26074  -92.64
885.664160  0.26253  -92.74
885.764411  0.26359  -92.88
885.864662  0.26452  -92.77
885.964912  0.26520  -92.89
886.065163  0.26651  -93.03
886.165414  0.26766  -93.27
886.265664  0.26961  -93.24
886.365915  0.27038  -93.52
886.466165  0.27214  -93.51
886.566416  0.27233  -93.54
886.666667  0.27380  -93.57
886.766917  0.27516  -93.55
886.867168  0.27589  -93.58
886.967419  0.27766  -93.52
887.067669  0.27807  -93.75
887.167920  0.27844  -93.95
887.268170  0.27957  -94.05
887.368421  0.28034  -94.25
887.468672  0.28115  -94.29
887.568922  0.28207  -94.45
887.669173  0.28330  -94.74
887.769424  0.28473  -94.61
887.869674  0.28505  -94.64
887.969925  0.28580  -94.43
888.070175  0.28528  -94.57
888.170426  0.28708  -94.78
888.270677  0.28722  -94.84
888.370927  0.28821  -94.97
888.471178  0.28972  -94.91
888.571429  0.29044  -95.10
888.671679  0.29225  -95.31
888.771930  0.29201  -95.04
888.872180  0.29242  -95.60
888.972431  0.29602  -95.38
889.072682  0.29533  -95.13
889.172932  0.29520  -95.49
889.273183  0.29848  -95.73
889.373434  0.29961  -95.07
889.473684  0.29625  -94.94
889.573935  0.29489  -95.71
889.674185  0.29906  -95.77
889.774436  0.29900  -95.75
889.874687  0.30002  -96.32
889.974937  0.30151  -95.87
890.075188  0.29871  -97.27
890.175439  0.31366  -97.55
890.275689  0.31387  -95.08
890.375940  0.30323  -94.13
890.476190  0.29584  -94.53
890.576441  0.29277  -95.95
890.676692  0.29630  -97.07
890.776942  0.29961  -97.87
890.877193  0.30467  -98.51
890.977444  0.30886  -98.83
891.077694  0.31010  -98.76
891.177945  0.31134  -98.63
891.278195  0.31161  -98.46
891.378446  0.30988  -98.28
891.478697  0.30966  -97.81
891.578947  0.30923  -97.54
891.679198  0.30975  -97.41
891.779449  0.31043  -97.16
891.879699  0.31152  -97.07
891.979950  0.31152  -97.21
892.080201  0.31298  -97.63
892.180451  0.31636  -98.41
892.280702  0.32126  -98.68
892.380952  0.32735  -97.94
892.481203  0.32147  -96.90
892.581454  0.31881  -97.01
892.681704  0.31938  -97.86
892.781955  0.32252  -98.18
892.882206  0.32009  -98.52
892.982456  0.31975  -99.54
893.082707  0.33079 -100.51
893.182957  0.33457 -100.10
893.283208  0.33426 -100.43
893.383459  0.32900 -100.49
893.483709  0.32759  -99.96
893.583960  0.32975  -99.50
893.684211  0.33007 -100.62
893.784461  0.32519 -101.05
893.884712  0.33038 -101.11
893.984962  0.33241 -100.96
894.085213  0.32207 -100.56
894.185464  0.32058  -99.10
894.285714  0.32540  -98.07
894.385965  0.33472  -97.46
894.486216  0.34544  -97.39
894.586466  0.35318  -98.47
894.686717  0.35697  -99.87
894.786967  0.35883 -100.61
894.887218  0.35097 -100.74
894.987469  0.34644  -99.97
895.087719  0.34911 -100.22
895.187970  0.34997 -100.21
895.288221  0.35170 -100.09
895.388471  0.34959 -100.26
895.488722  0.34858  -99.94
895.588972  0.35118  -99.69
895.689223  0.35666  -99.60
895.789474  0.35971  -99.79
895.889724  0.35915 -100.73
895.989975  0.35471 -100.61
896.090226  0.35208 -100.47
896.190476  0.35486  -99.76
896.290727  0.35856 -100.53
896.390977  0.35410 -100.27
896.491228  0.36175  -99.89
896.591479  0.36214 -100.97
896.691729  0.35968 -100.90
896.791980  0.36303 -100.73
896.892231  0.36260 -101.49
896.992481  0.36274 -100.90
897.092732  0.36389 -101.20
897.192982  0.36652 -101.20
897.293233  0.36769 -101.43
897.393484  0.36740 -101.54
897.493734  0.36939 -101.51
897.593985  0.37198 -101.64
897.694236  0.37193 -102.08
897.794486  0.37073 -102.33
897.894737  0.37209 -102.02
897.994987  0.37508 -102.49
898.095238  0.37209 -102.65
898.195489  0.37470 -102.32
898.295739  0.37583 -102.54
898.395990  0.37654 -102.55
898.496241  0.37663 -102.80
898.596491  0.37631 -102.91
898.696742  0.37833 -102.88
898.796992  0.37646 -103.09
898.897243  0.37867 -103.18
898.997494  0.37899 -103.30
899.097744  0.37909 -103.29
899.197995  0.38165 -103.48
899.298246  0.38062 -103.52
899.398496  0.38001 -103.70
899.498747  0.38265 -103.46
899.598997  0.38356 -103.69
899.699248  0.38367 -103.87
899.799499  0.38689 -104.07
899.899749  0.38559 -104.08
900.000000  0.38632 -104.37
