# MHz S MA R 50
!   freq        S11       
108.000000  0.98295  -55.82
110.454454  0.98272  -57.18
112.908909  0.98252  -58.55
115.363363  0.98360  -59.98
117.817818  0.98282  -61.36
120.272272  0.98241  -62.77
122.726727  0.98206  -64.19
125.181181  0.98183  -65.59
127.635636  0.98101  -67.07
130.090090  0.97946  -68.47
132.544545  0.97881  -69.87
134.998999  0.97817  -71.32
137.453453  0.97703  -72.67
139.907908  0.97661  -74.10
142.362362  0.97441  -75.48
144.816817  0.97295  -76.96
147.271271  0.97240  -78.38
149.725726  0.97115  -79.87
152.180180  0.97024  -81.35
154.634635  0.96898  -82.82
157.089089  0.96762  -84.28
159.543544  0.96654  -85.83
161.997998  0.96436  -87.33
164.452452  0.96279  -88.84
166.906907  0.96065  -90.36
169.361361  0.95891  -91.85
171.815816  0.95634  -93.42
174.270270  0.95486  -94.89
176.724725  0.95435  -96.44
179.179179  0.95138  -98.02
181.633634  0.94893  -99.54
184.088088  0.94806 -101.11
186.542543  0.94561 -102.70
188.996997  0.94384 -104.27
191.451451  0.94194 -105.90
193.905906  0.93971 -107.45
196.360360  0.93702 -109.10
198.814815  0.93434 -110.75
201.269269  0.93212 -112.41
203.723724  0.92991 -114.10
206.178178  0.92761 -115.81
208.632633  0.92469 -117.57
211.087087  0.92017 -119.44
213.541542  0.91410 -121.25
215.995996  0.90644 -123.03
218.450450  0.89930 -124.70
220.904905  0.89362 -126.34
223.359359  0.88685 -127.98
225.813814  0.87965 -129.69
228.268268  0.87131 -131.32
230.722723  0.86361 -132.74
233.177177  0.85701 -134.20
235.631632  0.85229 -135.55
238.086086  0.84861 -137.09
240.540541  0.84467 -138.65
242.994995  0.84023 -140.20
245.449449  0.83728 -141.81
247.903904  0.83338 -143.46
250.358358  0.82878 -145.19
252.812813  0.82327 -146.98
255.267267  0.81814 -148.73
257.721722  0.81195 -150.66
260.176176  0.80123 -152.62
262.630631  0.78876 -154.38
265.085085  0.77507 -156.07
267.539540  0.75952 -157.51
269.993994  0.74422 -158.78
272.448448  0.72646 -159.77
274.902903  0.71408 -159.68
277.357357  0.71046 -160.28
279.811812  0.70465 -160.83
282.266266  0.69987 -161.12
284.720721  0.69736 -161.09
287.175175  0.70580 -160.81
289.629630  0.72384 -161.05
292.084084  0.74801 -162.13
294.538539  0.77405 -165.10
296.992993  0.73708 -168.80
299.447447  0.73306 -166.13
301.901902  0.76784 -166.58
304.356356  0.79455 -168.39
306.810811  0.81456 -170.70
309.265265  0.82965 -173.04
311.719720  0.84267 -175.37
314.174174  0.85337 -177.76
316.628629  0.86252  179.84
319.083083  0.86950  177.43
321.537538  0.87754  175.12
323.991992  0.88485  172.70
326.446446  0.89204  170.22
328.900901  0.89902  167.74
331.355355  0.90647  165.23
333.809810  0.91093  162.69
336.264264  0.91913  160.08
338.718719  0.92422  157.35
341.173173  0.92810  154.65
343.627628  0.93263  151.76
346.082082  0.93676  148.92
348.536537  0.94045  146.01
350.990991  0.94203  143.05
353.445445  0.94279  140.02
355.899900  0.94293  137.00
358.354354  0.94298  133.85
360.808809  0.94047  130.77
363.263263  0.93894  127.54
365.717718  0.93611  124.43
368.172172  0.93367  121.13
370.626627  0.92945  117.86
373.081081  0.92549  114.44
375.535536  0.92021  111.03
377.989990  0.91344  107.55
380.444444  0.90703  104.02
382.898899  0.89855  100.34
385.353353  0.88909   96.66
387.807808  0.87843   92.77
390.262262  0.86714   88.96
392.716717  0.85563   85.03
395.171171  0.84045   81.07
397.625626  0.82349   77.09
400.080080  0.80753   73.28
402.534535  0.79463   69.38
404.988989  0.78253   65.24
407.443443  0.76876   60.82
409.897898  0.75497   56.13
412.352352  0.73784   51.13
414.806807  0.71681   46.04
417.261261  0.69345   40.71
419.715716  0.66655   35.40
422.170170  0.63983   30.27
424.624625  0.61567   24.75
427.079079  0.58917   18.89
429.533534  0.56063   12.99
431.987988  0.53775    6.69
434.442442  0.50098    0.59
436.896897  0.47231   -5.72
439.351351  0.44629  -12.36
441.805806  0.42032  -19.66
444.260260  0.39397  -27.12
446.714715  0.37064  -35.06
449.169169  0.34950  -43.93
451.623624  0.32815  -53.53
454.078078  0.30723  -63.79
456.532533  0.28765  -74.33
458.986987  0.27007  -84.73
461.441441  0.25683  -95.26
463.895896  0.24847 -105.70
466.350350  0.24443 -115.94
468.804805  0.24498 -126.03
471.259259  0.24841 -135.90
473.713714  0.25413 -145.59
476.168168  0.26058 -154.61
478.622623  0.26859 -163.02
481.077077  0.27762 -171.18
483.531532  0.28412 -179.05
485.985986  0.28774  173.99
488.440440  0.28976  167.93
490.894895  0.29139  163.03
493.349349  0.29606  159.35
495.803804  0.30478  155.89
498.258258  0.31550  152.30
500.712713  0.32693  148.35
503.167167  0.33654  144.46
505.621622  0.34361  140.80
508.076076  0.34921  137.46
510.530531  0.35579  134.71
512.984985  0.36584  132.32
515.439439  0.37802  129.75
517.893894  0.39157  126.92
520.348348  0.40319  123.87
522.802803  0.41381  120.95
525.257257  0.42465  118.25
527.711712  0.43623  115.63
530.166166  0.44857  113.01
532.620621  0.46240  110.39
535.075075  0.47688  107.65
537.529530  0.49221  104.58
539.983984  0.50501  101.38
542.438438  0.51735   97.94
544.892893  0.52741   94.76
547.347347  0.53697   91.54
549.801802  0.54648   88.41
552.256256  0.55468   85.20
554.710711  0.56116   82.06
557.165165  0.56627   78.93
559.619620  0.57095   76.04
562.074074  0.57568   73.19
564.528529  0.58046   70.24
566.982983  0.58364   67.58
569.437437  0.58682   64.94
571.891892  0.59140   62.50
574.346346  0.59644   60.00
576.800801  0.60288   57.46
579.255255  0.60823   54.98
581.709710  0.61668   52.50
584.164164  0.62316   49.97
586.618619  0.63110   47.21
589.073073  0.63996   44.58
591.527528  0.64802   41.87
593.981982  0.65792   39.01
596.436436  0.66587   36.03
598.890891  0.67459   32.94
601.345345  0.68020   29.67
603.799800  0.68610   26.52
606.254254  0.68956   23.28
608.708709  0.69115   20.30
611.163163  0.69440   17.20
613.617618  0.69622   14.19
616.072072  0.69939   11.10
618.526527  0.70323    8.04
620.980981  0.70491    4.96
623.435435  0.70735    1.88
625.889890  0.70834   -1.31
628.344344  0.71106   -4.60
630.798799  0.70703   -7.80
633.253253  0.70714  -11.02
635.707708  0.70449  -14.05
638.162162  0.70033  -17.26
640.616617  0.69688  -20.09
643.071071  0.69540  -23.06
645.525526  0.69381  -25.86
647.979980  0.68899  -28.83
650.434434  0.68818  -31.63
652.888889  0.68592  -34.53
655.343343  0.68279  -37.23
657.797798  0.68252  -40.16
660.252252  0.68054  -43.04
662.706707  0.67905  -45.75
665.161161  0.67814  -48.47
667.615616  0.67865  -51.31
670.070070  0.67805  -54.19
672.524525  0.68010  -57.06
674.978979  0.68067  -60.04
677.433433  0.68121  -63.06
679.887888  0.68087  -66.08
682.342342  0.67852  -69.19
684.796797  0.67804  -72.24
687.251251  0.67710  -75.18
689.705706  0.67732  -78.09
692.160160  0.67598  -80.98
694.614615  0.67559  -83.98
697.069069  0.67517  -86.96
699.523524  0.67490  -89.83
701.977978  0.67487  -92.91
704.432432  0.67513  -95.97
706.886887  0.67523  -99.11
709.341341  0.67442 -102.05
711.795796  0.67342 -105.06
714.250250  0.67462 -108.12
716.704705  0.67256 -111.24
719.159159  0.67040 -114.31
721.613614  0.67065 -117.29
724.068068  0.66837 -120.41
726.522523  0.66916 -123.44
728.976977  0.66895 -126.61
731.431431  0.66828 -129.77
733.885886  0.66652 -132.95
736.340340  0.66375 -136.06
738.794795  0.66315 -139.27
741.249249  0.66015 -142.21
743.703704  0.65801 -145.32
746.158158  0.65443 -148.49
748.612613  0.65328 -151.65
751.067067  0.65054 -154.79
753.521522  0.64594 -158.25
755.975976  0.63948 -161.43
758.430430  0.63253 -164.72
760.884885  0.62602 -167.68
763.339339  0.61923 -170.64
765.793794  0.61015 -173.44
768.248248  0.59985 -176.41
770.702703  0.59701 -178.91
773.157157  0.59016  178.54
775.611612  0.58397  175.84
778.066066  0.57768  172.98
780.520521  0.57041  170.15
782.974975  0.55933  167.52
785.429429  0.54802  165.41
787.883884  0.54245  163.93
790.338338  0.54484  161.79
792.792793  0.54656  159.29
795.247247  0.54536  156.25
797.701702  0.54209  153.16
800.156156  0.53735  150.04
802.610611  0.52874  147.09
805.065065  0.51967  144.24
807.519520  0.50912  141.54
809.973974  0.49994  138.81
812.428428  0.49029  136.05
814.882883  0.47857  133.57
817.337337  0.46764  131.20
819.791792  0.45690  128.61
822.246246  0.44636  126.47
824.700701  0.43472  124.01
827.155155  0.42318  121.70
829.609610  0.41081  119.60
832.064064  0.39872  117.47
834.518519  0.38869  115.65
836.972973  0.37900  113.62
839.427427  0.36765  111.37
841.881882  0.35530  109.29
844.336336  0.34144  107.13
846.790791  0.32762  105.33
849.245245  0.31205  103.82
851.699700  0.29842  102.66
854.154154  0.28498  101.75
856.608609  0.27276  101.06
859.063063  0.26188  100.58
861.517518  0.25130  100.20
863.971972  0.24204   99.99
866.426426  0.23353   99.46
868.880881  0.22372   99.05
871.335335  0.21328   98.84
873.789790  0.20253   99.00
876.244244  0.19204  100.16
878.698699  0.18504  101.59
881.153153  0.17929  103.01
883.607608  0.17555  103.98
886.062062  0.17177  104.87
888.516517  0.16659  105.29
890.970971  0.16003  105.83
893.425425  0.15284  107.04
895.879880  0.14558  109.16
898.334334  0.13859  111.67
900.788789  0.13388  115.03
903.243243  0.13018  118.60
905.697698  0.12779  122.22
908.152152  0.12559  126.77
910.606607  0.12537  131.70
913.061061  0.12758  137.37
915.515516  0.13306  142.26
917.969970  0.14108  146.51
920.424424  0.14922  149.98
922.878879  0.15884  153.22
925.333333  0.17217  156.29
927.787788  0.18881  158.58
930.242242  0.20711  159.35
932.696697  0.22510  159.20
935.151151  0.24433  158.75
937.605606  0.26211  157.69
940.060060  0.27945  156.51
942.514515  0.29817  155.21
944.968969  0.31301  153.49
947.423423  0.32808  151.79
949.877878  0.34323  150.23
952.332332  0.35716  148.53
954.786787  0.37270  147.02
957.241241  0.38693  145.11
959.695696  0.39962  143.06
962.150150  0.41048  141.34
964.604605  0.42140  139.56
967.059059  0.43106  137.90
969.513514  0.44210  136.53
971.967968  0.45288  135.07
974.422422  0.46497  133.63
976.876877  0.47741  132.22
979.331331  0.48966  130.65
981.785786  0.50372  129.14
984.240240  0.51570  127.41
986.694695  0.52861  125.34
989.149149  0.53900  123.34
991.603604  0.54762  121.46
994.058058  0.55612  119.69
996.512513  0.56296  117.89
998.966967  0.56982  116.35
1001.421421  0.57800  114.74
1003.875876  0.58615  113.02
1006.330330  0.59332  111.43
1008.784785  0.60008  109.87
1011.239239  0.60642  108.30
1013.693694  0.61330  106.82
1016.148148  0.62098  105.16
1018.602603  0.62619  103.53
1021.057057  0.63199  102.14
1023.511512  0.63714  100.51
1025.965966  0.64310   99.13
1028.420420  0.64918   97.81
1030.874875  0.65629   96.50
1033.329329  0.66398   94.88
1035.783784  0.67188   93.39
1038.238238  0.67581   91.78
1040.692693  0.68313   90.43
1043.147147  0.69006   88.98
1045.601602  0.69320   87.32
1048.056056  0.70256   86.02
1050.510511  0.70512   84.47
1052.964965  0.71281   82.89
1055.419419  0.71572   81.40
1057.873874  0.72205   79.85
1060.328328  0.72668   78.26
1062.782783  0.73220   76.81
1065.237237  0.73666   75.40
1067.691692  0.74121   73.70
1070.146146  0.74661   72.11
1072.600601  0.75195   70.67
1075.055055  0.75477   68.90
1077.509510  0.75896   67.45
1079.963964  0.76028   65.75
1082.418418  0.76523   64.18
1084.872873  0.76791   62.59
1087.327327  0.77028   60.87
1089.781782  0.77210   59.26
1092.236236  0.77951   57.89
1094.690691  0.77570   56.01
1097.145145  0.77804   54.47
1099.599600  0.77834   52.82
1102.054054  0.78081   51.29
1104.508509  0.78200   49.66
1106.962963  0.78173   47.89
1109.417417  0.78415   46.16
1111.871872  0.78272   44.39
1114.326326  0.78264   42.65
1116.780781  0.78166   40.87
1119.235235  0.77894   39.24
1121.689690  0.77803   37.49
1124.144144  0.77727   35.86
1126.598599  0.77427   34.35
1129.053053  0.77225   32.28
1131.507508  0.77085   30.33
1133.961962  0.76900   28.54
1136.416416  0.76143   26.58
1138.870871  0.75813   24.65
1141.325325  0.75260   22.51
1143.779780  0.74523   20.61
1146.234234  0.73988   18.60
1148.688689  0.72986   16.36
1151.143143  0.71928   14.22
1153.597598  0.70797   11.68
1156.052052  0.69671    9.57
1158.506507  0.67904    7.22
1160.960961  0.66099    4.87
1163.415415  0.64027    2.46
1165.869870  0.61695    0.14
1168.324324  0.58869   -2.04
1170.778779  0.56107   -3.68
1173.233233  0.52888   -5.35
1175.687688  0.49502   -6.43
1178.142142  0.45939   -6.71
1180.596597  0.42506   -5.93
1183.051051  0.39352   -3.54
1185.505506  0.37452    0.28
1187.959960  0.36962    5.21
1190.414414  0.38041    8.97
1192.868869  0.40221   11.07
1195.323323  0.42250   10.38
1197.777778  0.43638    8.11
1200.232232  0.43401    4.94
1202.686687  0.41803    2.46
1205.141141  0.39177    1.70
1207.595596  0.36638    2.74
1210.050050  0.34698    5.66
1212.504505  0.34070    9.69
1214.958959  0.34291   13.84
1217.413413  0.35430   17.02
1219.867868  0.37181   19.22
1222.322322  0.39184   20.62
1224.776777  0.41192   21.14
1227.231231  0.43327   21.25
1229.685686  0.45261   20.34
1232.140140  0.47225   19.47
1234.594595  0.48970   18.21
1237.049049  0.50552   16.72
1239.503504  0.52072   15.25
1241.957958  0.53349   13.50
1244.412412  0.54524   11.95
1246.866867  0.55517    9.99
1249.321321  0.56361    8.27
1251.775776  0.57200    6.26
1254.230230  0.57831    4.83
1256.684685  0.58448    2.79
1259.139139  0.58920    0.97
1261.593594  0.59383   -0.80
1264.048048  0.59749   -2.66
1266.502503  0.60086   -4.53
1268.956957  0.60282   -6.27
1271.411411  0.60320   -8.10
1273.865866  0.60375   -9.88
1276.320320  0.60315  -11.74
1278.774775  0.60211  -13.53
1281.229229  0.60151  -15.26
1283.683684  0.60039  -17.04
1286.138138  0.59849  -18.65
1288.592593  0.59743  -20.32
1291.047047  0.59612  -22.06
1293.501502  0.59313  -23.73
1295.955956  0.59053  -25.51
1298.410410  0.58367  -27.26
1300.864865  0.58319  -28.97
1303.319319  0.57837  -30.78
1305.773774  0.57432  -32.41
1308.228228  0.56979  -34.08
1310.682683  0.56493  -35.72
1313.137137  0.56091  -37.33
1315.591592  0.55560  -38.85
1318.046046  0.55053  -40.65
1320.500501  0.54617  -42.28
1322.954955  0.54118  -44.06
1325.409409  0.53457  -45.61
1327.863864  0.52999  -47.34
1330.318318  0.52453  -48.99
1332.772773  0.51853  -50.81
1335.227227  0.51291  -52.46
1337.681682  0.50543  -54.06
1340.136136  0.49868  -55.80
1342.590591  0.49115  -57.55
1345.045045  0.48414  -59.18
1347.499499  0.47659  -61.01
1349.953954  0.47024  -62.32
1352.408408  0.46268  -64.10
1354.862863  0.45600  -65.80
1357.317317  0.44967  -67.34
1359.771772  0.44305  -69.30
1362.226226  0.43659  -71.13
1364.680681  0.42771  -73.08
1367.135135  0.41953  -74.93
1369.589590  0.41133  -76.82
1372.044044  0.40308  -78.84
1374.498498  0.39378  -80.84
1376.952953  0.38227  -82.64
1379.407407  0.37266  -84.63
1381.861862  0.36240  -86.44
1384.316316  0.35134  -88.08
1386.770771  0.34188  -90.32
1389.225225  0.32889  -92.35
1391.679680  0.31884  -94.08
1394.134134  0.30732  -96.28
1396.588589  0.29424  -97.84
1399.043043  0.28118  -99.70
1401.497497  0.26760 -101.33
1403.951952  0.25322 -102.88
1406.406406  0.24099 -104.29
1408.860861  0.22687 -104.81
1411.315315  0.21430 -105.41
1413.769770  0.20233 -106.23
1416.224224  0.19251 -106.58
1418.678679  0.17967 -107.35
1421.133133  0.16819 -107.43
1423.587588  0.15710 -107.39
1426.042042  0.14593 -106.40
1428.496496  0.13393 -105.17
1430.950951  0.12533 -102.99
1433.405405  0.11797 -100.27
1435.859860  0.11121  -97.44
1438.314314  0.10583  -94.71
1440.768769  0.10004  -90.77
1443.223223  0.09704  -86.69
1445.677678  0.09338  -82.18
1448.132132  0.09246  -76.73
1450.586587  0.09323  -71.26
1453.041041  0.09623  -66.73
1455.495495  0.10135  -63.33
1457.949950  0.10614  -60.71
1460.404404  0.11096  -58.40
1462.858859  0.11671  -56.53
1465.313313  0.12104  -54.38
1467.767768  0.12886  -53.00
1470.222222  0.13701  -52.15
1472.676677  0.14579  -52.06
1475.131131  0.15266  -52.26
1477.585586  0.16061  -52.90
1480.040040  0.16873  -53.67
1482.494494  0.17529  -54.57
1484.948949  0.18168  -55.81
1487.403403  0.18879  -57.04
1489.857858  0.19416  -58.11
1492.312312  0.20070  -58.98
1494.766767  0.20799  -60.09
1497.221221  0.21436  -61.23
1499.675676  0.22246  -62.61
1502.130130  0.23003  -64.28
1504.584585  0.23637  -65.90
1507.039039  0.24371  -67.81
1509.493493  0.24967  -69.38
1511.947948  0.25559  -71.60
1514.402402  0.25959  -74.22
1516.856857  0.26669  -75.45
1519.311311  0.27176  -77.40
1521.765766  0.27624  -79.39
1524.220220  0.28042  -81.09
1526.674675  0.28545  -83.15
1529.129129  0.28975  -84.90
1531.583584  0.29239  -87.03
1534.038038  0.29700  -89.23
1536.492492  0.30122  -90.88
1538.946947  0.30378  -92.48
1541.401401  0.30804  -94.41
1543.855856  0.31283  -96.26
1546.310310  0.31723  -98.14
1548.764765  0.32260 -100.12
1551.219219  0.32541 -102.23
1553.673674  0.32970 -104.32
1556.128128  0.33360 -106.31
1558.582583  0.33659 -108.30
1561.037037  0.33954 -110.41
1563.491491  0.34018 -112.75
1565.945946  0.34382 -114.43
1568.400400  0.34576 -116.47
1570.854855  0.34860 -118.47
1573.309309  0.35020 -120.23
1575.763764  0.35180 -122.37
1578.218218  0.35420 -124.43
1580.672673  0.35586 -126.13
1583.127127  0.35727 -128.16
1585.581582  0.35977 -129.91
1588.036036  0.36121 -131.62
1590.490490  0.36330 -133.46
1592.944945  0.36632 -135.19
1595.399399  0.36783 -136.89
1597.853854  0.37073 -138.68
1600.308308  0.37412 -140.50
1602.762763  0.37711 -142.09
1605.217217  0.37940 -144.00
1607.671672  0.38223 -146.10
1610.126126  0.38341 -147.97
1612.580581  0.38561 -149.28
1615.035035  0.38778 -151.25
1617.489489  0.38954 -152.93
1619.943944  0.39199 -154.37
1622.398398  0.39233 -156.36
1624.852853  0.39721 -157.82
1627.307307  0.39995 -159.40
1629.761762  0.40271 -161.10
1632.216216  0.40572 -162.70
1634.670671  0.40884 -164.49
1637.125125  0.41206 -165.86
1639.579580  0.41407 -167.44
1642.034034  0.41867 -169.41
1644.488488  0.42170 -170.95
1646.942943  0.42480 -172.75
1649.397397  0.42736 -174.45
1651.851852  0.43051 -176.23
1654.306306  0.43409 -178.06
1656.760761  0.43695 -179.59
1659.215215  0.44025  178.81
1661.669670  0.44287  176.75
1664.124124  0.44455  175.29
1666.578579  0.44581  173.50
1669.033033  0.44822  171.73
1671.487487  0.44977  170.25
1673.941942  0.45270  168.43
1676.396396  0.45333  167.30
1678.850851  0.45427  165.79
1681.305305  0.45741  164.42
1683.759760  0.46095  162.72
1686.214214  0.46494  161.49
1688.668669  0.46783  159.91
1691.123123  0.47054  158.31
1693.577578  0.47364  156.49
1696.032032  0.47578  154.91
1698.486486  0.47589  153.36
1700.940941  0.47789  152.14
1703.395395  0.48010  150.44
1705.849850  0.48110  148.92
1708.304304  0.48401  147.58
1710.758759  0.48562  146.27
1713.213213  0.48740  144.84
1715.667668  0.49017  143.49
1718.122122  0.49318  141.80
1720.576577  0.49485  140.41
1723.031031  0.49875  139.13
1725.485485  0.49796  137.57
1727.939940  0.50052  136.28
1730.394394  0.50875  133.44
1732.848849  0.50468  133.76
1735.303303  0.50726  132.37
1737.757758  0.51103  131.08
1740.212212  0.51514  129.71
1742.666667  0.51794  128.34
1745.121121  0.52091  126.80
1747.575576  0.52421  125.25
1750.030030  0.52620  124.15
1752.484484  0.53049  122.47
1754.938939  0.53126  120.97
1757.393393  0.53453  119.66
1759.847848  0.53412  117.71
1762.302302  0.53869  116.15
1764.756757  0.53687  114.79
1767.211211  0.53820  113.15
1769.665666  0.53730  112.04
1772.120120  0.53844  110.83
1774.574575  0.53849  109.28
1777.029029  0.53984  107.89
1779.483483  0.53912  106.35
1781.937938  0.54305  105.10
1784.392392  0.54121  103.81
1786.846847  0.54055  102.55
1789.301301  0.54322  101.05
1791.755756  0.54198   99.43
1794.210210  0.54277   98.25
1796.664665  0.53978   96.77
1799.119119  0.53866   95.43
1801.573574  0.54113   94.55
1804.028028  0.54109   93.13
1806.482482  0.53809   91.84
1808.936937  0.53873   90.65
1811.391391  0.54034   89.31
1813.845846  0.53649   87.75
1816.300300  0.53841   86.68
1818.754755  0.53816   84.77
1821.209209  0.53527   83.68
1823.663664  0.53592   82.16
