# MHz S MA R 50
!   freq        S11       
108.000000  0.98265  -55.91
110.454454  0.98240  -57.27
112.908909  0.98249  -58.63
115.363363  0.98338  -60.04
117.817818  0.98242  -61.43
120.272272  0.98249  -62.89
122.726727  0.98142  -64.28
125.181181  0.98120  -65.71
127.635636  0.97991  -67.16
130.090090  0.97890  -68.57
132.544545  0.97787  -69.99
134.998999  0.97817  -71.34
137.453453  0.97640  -72.74
139.907908  0.97651  -74.20
142.362362  0.97403  -75.58
144.816817  0.97266  -77.03
147.271271  0.97183  -78.48
149.725726  0.97054  -79.96
152.180180  0.97006  -81.41
154.634635  0.96864  -82.91
157.089089  0.96830  -84.35
159.543544  0.96618  -85.88
161.997998  0.96501  -87.36
164.452452  0.96395  -88.92
166.906907  0.96162  -90.43
169.361361  0.96047  -91.95
171.815816  0.95871  -93.48
174.270270  0.95677  -95.03
176.724725  0.95486  -96.58
179.179179  0.95259  -98.13
181.633634  0.95115  -99.67
184.088088  0.94938 -101.28
186.542543  0.94690 -102.89
188.996997  0.94463 -104.48
191.451451  0.94245 -106.08
193.905906  0.94045 -107.62
196.360360  0.93774 -109.28
198.814815  0.93583 -110.96
201.269269  0.93254 -112.64
203.723724  0.92944 -114.33
206.178178  0.92762 -115.96
208.632633  0.92420 -117.68
211.087087  0.91978 -119.50
213.541542  0.91444 -121.22
215.995996  0.90904 -122.93
218.450450  0.90431 -124.58
220.904905  0.90115 -126.21
223.359359  0.89616 -128.03
225.813814  0.89061 -129.80
228.268268  0.88252 -131.61
230.722723  0.87500 -133.19
233.177177  0.86881 -134.78
235.631632  0.86319 -136.29
238.086086  0.85917 -137.90
240.540541  0.85585 -139.56
242.994995  0.85123 -141.35
245.449449  0.84624 -143.16
247.903904  0.83934 -144.96
250.358358  0.83213 -146.74
252.812813  0.82479 -148.58
255.267267  0.81604 -150.32
257.721722  0.80782 -152.11
260.176176  0.79693 -153.94
262.630631  0.78403 -155.70
265.085085  0.76870 -157.33
267.539540  0.75261 -158.60
269.993994  0.73793 -159.71
272.448448  0.72071 -160.39
274.902903  0.71275 -159.97
277.357357  0.71883 -159.49
279.811812  0.75628 -159.74
282.266266  0.81011 -164.64
284.720721  0.77720 -174.01
287.175175  0.65614 -177.13
289.629630  0.58343 -172.36
292.084084  0.57440 -166.10
294.538539  0.60202 -161.74
296.992993  0.64874 -160.09
299.447447  0.69668 -160.69
301.901902  0.73728 -162.56
304.356356  0.76951 -164.95
306.810811  0.79230 -167.66
309.265265  0.81149 -170.27
311.719720  0.82665 -172.81
314.174174  0.83961 -175.36
316.628629  0.85198 -177.91
319.083083  0.86182  179.66
321.537538  0.87157  177.14
323.991992  0.88160  174.65
326.446446  0.89099  171.96
328.900901  0.89798  169.43
331.355355  0.90575  166.77
333.809810  0.91376  164.11
336.264264  0.91878  161.38
338.718719  0.92475  158.61
341.173173  0.93086  155.82
343.627628  0.93330  152.93
346.082082  0.93674  150.04
348.536537  0.93879  147.12
350.990991  0.93991  144.15
353.445445  0.94108  141.17
355.899900  0.94007  138.21
358.354354  0.93854  135.09
360.808809  0.93713  132.06
363.263263  0.93474  129.02
365.717718  0.93284  125.91
368.172172  0.93049  122.77
370.626627  0.92688  119.69
373.081081  0.92231  116.39
375.535536  0.91843  113.16
377.989990  0.91316  109.81
380.444444  0.90738  106.52
382.898899  0.89965  103.10
385.353353  0.89224   99.68
387.807808  0.88560   96.22
390.262262  0.87693   92.65
392.716717  0.87045   88.99
395.171171  0.86129   85.26
397.625626  0.85008   81.47
400.080080  0.83931   77.70
402.534535  0.83048   73.85
404.988989  0.82027   69.78
407.443443  0.80859   65.64
409.897898  0.79783   61.33
412.352352  0.78641   56.81
414.806807  0.77179   52.11
417.261261  0.75523   47.09
419.715716  0.73596   41.97
422.170170  0.71310   36.91
424.624625  0.69158   31.75
427.079079  0.66841   26.44
429.533534  0.64281   20.97
431.987988  0.61739   15.61
434.442442  0.58980   10.32
436.896897  0.56706    4.96
439.351351  0.54847   -0.51
441.805806  0.53383   -6.74
444.260260  0.51522  -13.78
446.714715  0.49442  -21.26
449.169169  0.47347  -28.99
451.623624  0.45296  -37.40
454.078078  0.43163  -46.53
456.532533  0.40683  -56.07
458.986987  0.38199  -65.32
461.441441  0.36030  -74.78
463.895896  0.34103  -84.51
466.350350  0.32427  -94.50
468.804805  0.30989 -104.45
471.259259  0.29725 -114.18
473.713714  0.28660 -123.91
476.168168  0.27753 -132.91
478.622623  0.27140 -141.36
481.077077  0.26847 -149.23
483.531532  0.26730 -156.59
485.985986  0.26702 -163.64
488.440440  0.26645 -170.10
490.894895  0.26573 -175.42
493.349349  0.26802 -179.61
495.803804  0.27532  176.76
498.258258  0.28614  173.08
500.712713  0.29898  168.81
503.167167  0.31082  164.50
505.621622  0.32195  160.37
508.076076  0.33237  156.42
510.530531  0.34357  152.76
512.984985  0.35539  149.24
515.439439  0.36882  145.98
517.893894  0.38408  142.52
520.348348  0.39847  138.85
522.802803  0.41249  135.09
525.257257  0.42649  131.27
527.711712  0.43888  127.75
530.166166  0.45089  124.12
532.620621  0.46323  120.50
535.075075  0.47254  116.77
537.529530  0.48129  113.22
539.983984  0.48879  109.99
542.438438  0.49680  106.89
544.892893  0.50604  103.88
547.347347  0.51590  100.74
549.801802  0.52503   97.68
552.256256  0.53361   94.49
554.710711  0.54154   91.44
557.165165  0.54843   88.28
559.619620  0.55473   85.20
562.074074  0.56000   82.18
564.528529  0.56480   79.19
566.982983  0.56931   76.48
569.437437  0.57426   73.88
571.891892  0.58036   71.22
574.346346  0.58645   68.64
576.800801  0.59428   65.87
579.255255  0.59915   63.23
581.709710  0.60634   60.47
584.164164  0.61187   57.93
586.618619  0.61773   55.24
589.073073  0.62669   52.67
591.527528  0.63508   49.97
593.981982  0.64460   47.28
596.436436  0.65263   44.51
598.890891  0.66396   41.53
601.345345  0.67096   38.36
603.799800  0.68062   35.10
606.254254  0.68592   31.83
608.708709  0.69093   28.74
611.163163  0.69552   25.65
613.617618  0.69981   22.53
616.072072  0.70588   19.36
618.526527  0.70941   16.07
620.980981  0.71321   12.82
623.435435  0.71511    9.46
625.889890  0.71662    6.16
628.344344  0.71968    2.84
630.798799  0.71432   -0.55
633.253253  0.71320   -3.68
635.707708  0.71131   -6.86
638.162162  0.70942  -10.08
640.616617  0.70576  -12.91
643.071071  0.70343  -15.91
645.525526  0.70210  -18.87
647.979980  0.69420  -22.02
650.434434  0.69794  -24.77
652.888889  0.69491  -27.66
655.343343  0.69457  -30.52
657.797798  0.69285  -33.44
660.252252  0.69209  -36.53
662.706707  0.69097  -39.33
665.161161  0.68825  -42.23
667.615616  0.68799  -45.04
670.070070  0.68565  -48.04
672.524525  0.68773  -50.85
674.978979  0.68796  -53.83
677.433433  0.68871  -56.85
679.887888  0.68822  -59.98
682.342342  0.68723  -62.96
684.796797  0.68605  -66.17
687.251251  0.68582  -69.13
689.705706  0.68629  -72.16
692.160160  0.68590  -75.21
694.614615  0.68525  -78.38
697.069069  0.68367  -81.49
699.523524  0.68265  -84.52
701.977978  0.68128  -87.72
704.432432  0.68045  -90.95
706.886887  0.67857  -94.08
709.341341  0.67574  -97.16
711.795796  0.67296 -100.23
714.250250  0.67284 -103.34
716.704705  0.66940 -106.40
719.159159  0.66599 -109.51
721.613614  0.66543 -112.47
724.068068  0.66325 -115.71
726.522523  0.66243 -118.71
728.976977  0.66022 -121.91
731.431431  0.65790 -125.15
733.885886  0.65549 -128.20
736.340340  0.65290 -131.45
738.794795  0.65094 -134.71
741.249249  0.64620 -137.87
743.703704  0.64265 -141.12
746.158158  0.63896 -144.52
748.612613  0.63350 -147.82
751.067067  0.62583 -151.03
753.521522  0.61948 -154.27
755.975976  0.61193 -157.65
758.430430  0.60578 -160.90
760.884885  0.59719 -164.29
763.339339  0.58860 -167.69
765.793794  0.57596 -171.20
768.248248  0.56146 -174.91
770.702703  0.54354 -178.71
773.157157  0.52117  177.67
775.611612  0.49116  174.02
778.066066  0.45325  170.77
780.520521  0.40187  168.98
782.974975  0.34383  171.61
785.429429  0.30963 -177.40
787.883884  0.34809 -164.87
790.338338  0.43319 -163.02
792.792793  0.50179 -167.56
795.247247  0.54304 -173.92
797.701702  0.56554 -179.62
800.156156  0.57581  175.12
802.610611  0.57762  170.52
805.065065  0.57826  166.17
807.519520  0.57356  162.04
809.973974  0.56719  158.24
812.428428  0.55878  154.65
814.882883  0.54854  151.40
817.337337  0.53771  148.51
819.791792  0.52864  145.32
822.246246  0.51818  142.90
824.700701  0.50871  139.86
827.155155  0.49958  137.38
829.609610  0.48805  135.13
832.064064  0.47863  132.79
834.518519  0.46923  130.66
836.972973  0.46310  128.79
839.427427  0.45691  126.42
841.881882  0.44977  124.12
844.336336  0.44053  121.35
846.790791  0.42937  118.81
849.245245  0.41419  116.36
851.699700  0.40056  114.23
854.154154  0.38599  111.96
856.608609  0.37144  109.61
859.063063  0.35465  107.88
861.517518  0.33607  106.26
863.971972  0.31799  105.59
866.426426  0.30335  105.32
868.880881  0.28941  105.31
871.335335  0.27767  105.61
873.789790  0.26761  105.92
876.244244  0.25782  106.49
878.698699  0.25063  107.38
881.153153  0.24446  108.38
883.607608  0.24094  109.46
886.062062  0.23914  110.30
888.516517  0.23723  110.52
890.970971  0.23471  110.45
893.425425  0.23211  110.43
895.879880  0.22886  110.29
898.334334  0.22339  109.67
900.788789  0.21726  109.71
903.243243  0.20920  110.04
905.697698  0.20141  111.03
908.152152  0.19329  112.46
910.606607  0.18731  114.71
913.061061  0.18249  117.71
915.515516  0.18085  120.95
917.969970  0.18153  124.29
920.424424  0.18472  127.38
922.878879  0.18891  129.97
925.333333  0.19398  132.28
927.787788  0.19866  134.45
930.242242  0.20633  137.14
932.696697  0.21451  139.46
935.151151  0.22753  141.25
937.605606  0.24233  142.32
940.060060  0.25613  142.41
942.514515  0.27099  142.20
944.968969  0.28214  141.71
947.423423  0.29312  141.32
949.877878  0.30364  141.03
952.332332  0.31538  141.06
954.786787  0.33023  140.92
957.241241  0.34585  140.48
959.695696  0.36050  139.46
962.150150  0.37471  138.29
964.604605  0.38763  136.91
967.059059  0.40074  135.64
969.513514  0.41616  134.36
971.967968  0.43163  132.87
974.422422  0.44718  131.38
976.876877  0.46112  129.81
979.331331  0.47291  128.36
981.785786  0.48536  126.97
984.240240  0.49614  125.62
986.694695  0.50842  123.98
989.149149  0.52060  122.49
991.603604  0.53345  121.06
994.058058  0.54630  119.29
996.512513  0.55792  117.50
998.966967  0.56862  115.68
1001.421421  0.58198  113.88
1003.875876  0.59276  112.12
1006.330330  0.60229  110.34
1008.784785  0.61018  108.36
1011.239239  0.61639  106.41
1013.693694  0.62252  104.64
1016.148148  0.63013  103.03
1018.602603  0.63558  101.38
1021.057057  0.64274   99.71
1023.511512  0.64679   98.25
1025.965966  0.65290   96.46
1028.420420  0.65744   95.06
1030.874875  0.66304   93.65
1033.329329  0.66836   92.14
1035.783784  0.67598   90.76
1038.238238  0.68152   89.27
1040.692693  0.68848   87.80
1043.147147  0.69587   86.29
1045.601602  0.70167   84.39
1048.056056  0.71001   82.95
1050.510511  0.71469   81.17
1052.964965  0.71883   79.60
1055.419419  0.72215   77.84
1057.873874  0.72794   76.11
1060.328328  0.73006   74.57
1062.782783  0.73407   72.69
1065.237237  0.73593   71.11
1067.691692  0.73831   69.56
1070.146146  0.73962   67.83
1072.600601  0.74230   66.41
1075.055055  0.74205   64.91
1077.509510  0.74412   63.30
1079.963964  0.74440   61.64
1082.418418  0.74671   60.35
1084.872873  0.74978   58.64
1087.327327  0.74999   57.12
1089.781782  0.75024   55.60
1092.236236  0.75473   54.40
1094.690691  0.75267   52.47
1097.145145  0.75306   51.11
1099.599600  0.75422   49.42
1102.054054  0.75428   47.79
1104.508509  0.75376   46.25
1106.962963  0.75633   44.71
1109.417417  0.75489   42.75
1111.871872  0.75113   41.09
1114.326326  0.74938   39.35
1116.780781  0.74820   37.74
1119.235235  0.74687   36.14
1121.689690  0.74190   34.38
1124.144144  0.74056   32.84
1126.598599  0.73695   31.11
1129.053053  0.73534   29.28
1131.507508  0.73226   27.52
1133.961962  0.72637   25.64
1136.416416  0.72210   23.88
1138.870871  0.71810   21.92
1141.325325  0.71269   19.98
1143.779780  0.70503   17.93
1146.234234  0.69743   16.01
1148.688689  0.68882   13.89
1151.143143  0.67817   11.82
1153.597598  0.66753    9.54
1156.052052  0.65739    7.52
1158.506507  0.64242    5.37
1160.960961  0.62794    3.34
1163.415415  0.61167    1.02
1165.869870  0.59374   -1.31
1168.324324  0.57195   -3.51
1170.778779  0.55140   -5.30
1173.233233  0.52742   -7.52
1175.687688  0.50166   -9.44
1178.142142  0.47287  -11.15
1180.596597  0.44091  -12.67
1183.051051  0.40562  -13.56
1185.505506  0.37178  -12.98
1187.959960  0.33931  -10.44
1190.414414  0.31871   -6.19
1192.868869  0.31479   -1.19
1195.323323  0.32248    1.43
1197.777778  0.32996    1.93
1200.232232  0.32830    1.01
1202.686687  0.31800    0.55
1205.141141  0.30280    1.25
1207.595596  0.29008    3.26
1210.050050  0.28024    6.37
1212.504505  0.27519    9.95
1214.958959  0.27613   13.72
1217.413413  0.28076   17.21
1219.867868  0.29081   20.39
1222.322322  0.30368   22.88
1224.776777  0.31916   24.71
1227.231231  0.33798   25.86
1229.685686  0.35615   25.99
1232.140140  0.37446   25.96
1234.594595  0.39178   25.63
1237.049049  0.40894   24.83
1239.503504  0.42522   23.78
1241.957958  0.44172   22.66
1244.412412  0.45682   21.21
1246.866867  0.47001   19.55
1249.321321  0.48183   17.84
1251.775776  0.49323   15.87
1254.230230  0.50241   14.40
1256.684685  0.50934   12.40
1259.139139  0.51619   10.36
1261.593594  0.52078    8.90
1264.048048  0.52301    7.20
1266.502503  0.52761    5.77
1268.956957  0.53288    3.99
1271.411411  0.53611    2.47
1273.865866  0.53872    0.90
1276.320320  0.54098   -0.78
1278.774775  0.54262   -2.35
1281.229229  0.54365   -3.95
1283.683684  0.54472   -5.48
1286.138138  0.54440   -7.01
1288.592593  0.54654   -8.41
1291.047047  0.54652  -10.01
1293.501502  0.54604  -11.53
1295.955956  0.54616  -12.97
1298.410410  0.54414  -14.49
1300.864865  0.54537  -15.98
1303.319319  0.54383  -17.56
1305.773774  0.54276  -19.05
1308.228228  0.54147  -20.68
1310.682683  0.53879  -22.17
1313.137137  0.53643  -23.71
1315.591592  0.53328  -24.99
1318.046046  0.53034  -26.34
1320.500501  0.52808  -27.75
1322.954955  0.52556  -29.30
1325.409409  0.52251  -30.61
1327.863864  0.52001  -31.97
1330.318318  0.51751  -33.38
1332.772773  0.51436  -34.82
1335.227227  0.51207  -36.29
1337.681682  0.50817  -37.77
1340.136136  0.50485  -39.12
1342.590591  0.50030  -40.61
1345.045045  0.49764  -42.02
1347.499499  0.49344  -43.43
1349.953954  0.48974  -44.57
1352.408408  0.48709  -45.99
1354.862863  0.48268  -47.39
1357.317317  0.47977  -48.73
1359.771772  0.47755  -50.22
1362.226226  0.47327  -51.71
1364.680681  0.46945  -53.22
1367.135135  0.46659  -54.62
1369.589590  0.46307  -56.22
1372.044044  0.45857  -57.86
1374.498498  0.45306  -59.24
1376.952953  0.44788  -60.99
1379.407407  0.44320  -62.57
1381.861862  0.43845  -64.32
1384.316316  0.43133  -65.70
1386.770771  0.42612  -67.48
1389.225225  0.41789  -69.05
1391.679680  0.41178  -70.55
1394.134134  0.40574  -72.15
1396.588589  0.39920  -73.52
1399.043043  0.39214  -74.94
1401.497497  0.38441  -76.52
1403.951952  0.37787  -77.67
1406.406406  0.36539  -79.62
1408.860861  0.36360  -80.38
1411.315315  0.35588  -81.65
1413.769770  0.34794  -82.72
1416.224224  0.34178  -83.69
1418.678679  0.33137  -84.95
1421.133133  0.32709  -85.78
1423.587588  0.31959  -87.07
1426.042042  0.31243  -87.71
1428.496496  0.30561  -88.37
1430.950951  0.29992  -89.28
1433.405405  0.29442  -90.56
1435.859860  0.28797  -91.22
1438.314314  0.28132  -92.33
1440.768769  0.27496  -92.78
1443.223223  0.26891  -93.53
1445.677678  0.26383  -94.15
1448.132132  0.25819  -94.80
1450.586587  0.25241  -95.13
1453.041041  0.24653  -95.54
1455.495495  0.24241  -95.78
1457.949950  0.23747  -96.01
1460.404404  0.23322  -96.20
1462.858859  0.23039  -96.08
1465.313313  0.22569  -96.02
1467.767768  0.22390  -95.96
1470.222222  0.22278  -95.71
1472.676677  0.22098  -95.72
1475.131131  0.21932  -96.07
1477.585586  0.21828  -96.15
1480.040040  0.21748  -96.03
1482.494494  0.21726  -96.11
1484.948949  0.21682  -96.36
1487.403403  0.21766  -96.38
1489.857858  0.21778  -96.65
1492.312312  0.21868  -96.87
1494.766767  0.21908  -97.46
1497.221221  0.21939  -97.71
1499.675676  0.22000  -97.96
1502.130130  0.22099  -98.12
1504.584585  0.22060  -98.27
1507.039039  0.22352  -97.93
1509.493493  0.22483  -98.09
1511.947948  0.22876  -98.82
1514.402402  0.23146 -100.04
1516.856857  0.23519  -99.49
1519.311311  0.23918 -100.10
1521.765766  0.24307 -100.93
1524.220220  0.24801 -101.53
1526.674675  0.25363 -102.48
1529.129129  0.25809 -103.80
1531.583584  0.26334 -105.03
1534.038038  0.26784 -106.44
1536.492492  0.27237 -107.83
1538.946947  0.27614 -108.94
1541.401401  0.28096 -110.68
1543.855856  0.28369 -112.17
1546.310310  0.28831 -113.43
1548.764765  0.29313 -115.15
1551.219219  0.29613 -116.97
1553.673674  0.30120 -118.17
1556.128128  0.30456 -120.14
1558.582583  0.30716 -121.98
1561.037037  0.31006 -123.78
1563.491491  0.31185 -125.67
1565.945946  0.31479 -127.13
1568.400400  0.31720 -128.67
1570.854855  0.32047 -130.38
1573.309309  0.32320 -131.90
1575.763764  0.32668 -133.96
1578.218218  0.32862 -135.83
1580.672673  0.33032 -137.79
1583.127127  0.33262 -139.25
1585.581582  0.33555 -140.75
1588.036036  0.33678 -142.82
1590.490490  0.33966 -144.29
1592.944945  0.34135 -146.30
1595.399399  0.34256 -147.88
1597.853854  0.34443 -149.72
1600.308308  0.34637 -151.25
1602.762763  0.34817 -152.98
1605.217217  0.34882 -154.63
1607.671672  0.34998 -156.32
1610.126126  0.35016 -158.10
1612.580581  0.35181 -159.53
1615.035035  0.35323 -161.14
1617.489489  0.35492 -162.45
1619.943944  0.35602 -163.48
1622.398398  0.35665 -165.09
1624.852853  0.36148 -166.57
1627.307307  0.36297 -168.11
1629.761762  0.36551 -169.71
1632.216216  0.36778 -170.83
1634.670671  0.37023 -172.53
1637.125125  0.37218 -173.72
1639.579580  0.37479 -174.88
1642.034034  0.37711 -176.57
1644.488488  0.38042 -177.65
1646.942943  0.38492 -179.28
1649.397397  0.38735  179.30
1651.851852  0.39118  177.63
1654.306306  0.39419  176.21
1656.760761  0.39613  174.56
1659.215215  0.39740  173.35
1661.669670  0.40150  171.28
1664.124124  0.40412  170.34
1666.578579  0.40768  168.81
1669.033033  0.41035  167.23
1671.487487  0.41381  165.64
1673.941942  0.41608  163.94
1676.396396  0.41717  162.71
1678.850851  0.41821  161.20
1681.305305  0.41934  159.98
1683.759760  0.42031  158.89
1686.214214  0.42450  157.85
1688.668669  0.42736  156.66
1691.123123  0.43029  155.39
1693.577578  0.43475  154.49
1696.032032  0.44001  152.91
1698.486486  0.44531  151.22
1700.940941  0.44895  149.97
1703.395395  0.45330  148.18
1705.849850  0.45585  146.51
1708.304304  0.46080  145.07
1710.758759  0.46369  143.30
1713.213213  0.46578  141.92
1715.667668  0.46780  140.52
1718.122122  0.46864  138.99
1720.576577  0.47045  137.55
1723.031031  0.47285  136.28
1725.485485  0.47561  134.30
1727.939940  0.47722  132.98
1730.394394  0.48614  130.44
1732.848849  0.48383  130.30
1735.303303  0.48467  128.85
1737.757758  0.48446  127.41
1740.212212  0.48801  125.86
1742.666667  0.48744  124.52
1745.121121  0.48885  123.03
1747.575576  0.49098  122.06
1750.030030  0.49003  120.50
1752.484484  0.49296  118.99
1754.938939  0.49070  117.69
1757.393393  0.49135  116.57
1759.847848  0.49026  115.48
1762.302302  0.49306  113.75
1764.756757  0.49254  112.60
1767.211211  0.49697  111.22
1769.665666  0.49383  110.13
1772.120120  0.49642  108.96
1774.574575  0.49592  107.63
1777.029029  0.49794  106.36
1779.483483  0.50012  105.18
1781.937938  0.50103  103.76
1784.392392  0.49995  102.30
1786.846847  0.50020  100.94
1789.301301  0.50050   99.80
1791.755756  0.50043   98.65
1794.210210  0.49983   97.49
1796.664665  0.49699   96.22
1799.119119  0.49847   94.99
1801.573574  0.49819   93.95
1804.028028  0.49768   92.99
1806.482482  0.49691   91.92
1808.936937  0.49766   90.74
1811.391391  0.49809   89.65
1813.845846  0.49688   88.49
1816.300300  0.49978   87.47
1818.754755  0.50110   85.77
1821.209209  0.50092   84.67
1823.663664  0.50147   83.36
