# MHz S MA R 50
!   freq        S11       
860.000000  0.10337 -132.14
860.100251  0.10470 -131.15
860.200501  0.10541 -130.00
860.300752  0.10466 -129.09
860.401003  0.10346 -128.40
860.501253  0.10480 -127.80
860.601504  0.10407 -127.77
860.701754  0.10324 -127.04
860.802005  0.10508 -124.82
860.902256  0.10762 -124.00
861.002506  0.10779 -123.63
861.102757  0.10749 -123.80
861.203008  0.10671 -123.70
861.303258  0.10709 -122.93
861.403509  0.10717 -122.35
861.503759  0.10729 -121.71
861.604010  0.10760 -121.27
861.704261  0.10764 -120.82
861.804511  0.10763 -120.35
861.904762  0.10793 -119.80
862.005013  0.10797 -119.32
862.105263  0.10905 -118.74
862.205514  0.10895 -118.38
862.305764  0.10937 -117.82
862.406015  0.10993 -117.35
862.506266  0.11033 -116.55
862.606516  0.11040 -116.35
862.706767  0.11039 -115.91
862.807018  0.11046 -115.60
862.907268  0.11089 -114.86
863.007519  0.11103 -114.01
863.107769  0.11196 -113.68
863.208020  0.11294 -113.06
863.308271  0.11320 -112.70
863.408521  0.11372 -112.09
863.508772  0.11433 -111.32
863.609023  0.11471 -110.89
863.709273  0.11554 -110.31
863.809524  0.11639 -109.67
863.909774  0.11770 -109.36
864.010025  0.11866 -108.94
864.110276  0.11959 -108.41
864.210526  0.12078 -108.18
864.310777  0.12154 -107.66
864.411028  0.12282 -107.26
864.511278  0.12354 -106.98
864.611529  0.12465 -106.52
864.711779  0.12528 -106.41
864.812030  0.12615 -105.73
864.912281  0.12782 -105.36
865.012531  0.12808 -105.06
865.112782  0.12915 -104.66
865.213033  0.12930 -104.41
865.313283  0.13034 -104.17
865.413534  0.13083 -103.75
865.513784  0.13215 -103.21
865.614035  0.13322 -102.91
865.714286  0.13416 -102.58
865.814536  0.13547 -102.35
865.914787  0.13667 -102.12
866.015038  0.13745 -101.67
866.115288  0.13887 -101.29
866.215539  0.13956 -101.06
866.315789  0.14039 -100.64
866.416040  0.14154 -100.37
866.516291  0.14232 -100.06
866.616541  0.14314  -99.78
866.716792  0.14444  -99.58
866.817043  0.14487  -99.59
866.917293  0.14589  -99.20
867.017544  0.14712  -98.83
867.117794  0.14833  -98.60
867.218045  0.14947  -98.47
867.318296  0.14988  -98.49
867.418546  0.15110  -98.42
867.518797  0.15276  -98.06
867.619048  0.15367  -97.69
867.719298  0.15462  -97.57
867.819549  0.15559  -97.56
867.919799  0.15651  -97.36
868.020050  0.15780  -97.05
868.120301  0.15892  -97.05
868.220551  0.15955  -96.78
868.320802  0.16144  -96.81
868.421053  0.16164  -96.51
868.521303  0.16333  -96.59
868.621554  0.16376  -96.59
868.721805  0.16516  -96.61
868.822055  0.16609  -96.57
868.922306  0.16751  -96.36
869.022556  0.16825  -96.41
869.122807  0.16887  -96.29
869.223058  0.17001  -96.17
869.323308  0.17093  -96.25
869.423559  0.17227  -96.03
869.523810  0.17314  -95.87
869.624060  0.17431  -95.91
869.724311  0.17519  -95.87
869.824561  0.17637  -95.75
869.924812  0.17759  -95.59
870.025063  0.17885  -95.18
870.125313  0.17977  -95.13
870.225564  0.18011  -95.33
870.325815  0.18121  -95.25
870.426065  0.18252  -95.23
870.526316  0.18611  -94.76
870.626566  0.19013  -94.54
870.726817  0.19186  -95.02
870.827068  0.19123  -95.94
870.927318  0.18982  -96.66
871.027569  0.18728  -96.99
871.127820  0.18640  -97.17
871.228070  0.18719  -96.66
871.328321  0.18928  -95.10
871.428571  0.19416  -94.95
871.528822  0.19373  -94.67
871.629073  0.19519  -96.21
871.729323  0.19524  -96.48
871.829574  0.19634  -94.64
871.929825  0.19636  -94.02
872.030075  0.20057  -95.11
872.130326  0.20167  -94.28
872.230576  0.19953  -93.41
872.330827  0.20164  -94.08
872.431078  0.20164  -93.54
872.531328  0.19958  -93.69
872.631579  0.20126  -93.89
872.731830  0.20079  -94.01
872.832080  0.20192  -93.90
872.932331  0.20283  -94.00
873.032581  0.20427  -93.71
873.132832  0.20540  -93.26
873.233083  0.20433  -93.13
873.333333  0.20384  -93.50
873.433584  0.20486  -93.39
873.533835  0.20871  -93.16
873.634085  0.21085  -93.49
873.734336  0.21234  -93.05
873.834586  0.21076  -92.59
873.934837  0.21053  -92.82
874.035088  0.21287  -92.70
874.135338  0.21596  -92.44
874.235589  0.21778  -92.35
874.335840  0.21891  -92.26
874.436090  0.22059  -92.33
874.536341  0.22040  -92.57
874.636591  0.22020  -92.41
874.736842  0.22078  -92.44
874.837093  0.22188  -92.09
874.937343  0.22179  -92.00
875.037594  0.22241  -92.87
875.137845  0.22430  -92.97
875.238095  0.22533  -92.86
875.338346  0.22621  -92.87
875.438596  0.22711  -92.76
875.538847  0.22772  -92.68
875.639098  0.22841  -92.50
875.739348  0.22980  -92.29
875.839599  0.23098  -92.43
875.939850  0.23389  -92.96
876.040100  0.23516  -93.94
876.140351  0.23431  -93.55
876.240602  0.23736  -93.26
876.340852  0.23896  -93.35
876.441103  0.23930  -93.41
876.541353  0.23919  -93.67
876.641604  0.23930  -93.89
876.741855  0.23998  -93.77
876.842105  0.23980  -93.78
876.942356  0.23856  -93.64
877.042607  0.23775  -93.92
877.142857  0.23778  -93.93
877.243108  0.23901  -93.58
877.343358  0.23861  -93.80
877.443609  0.24028  -93.70
877.543860  0.24145  -93.90
877.644110  0.24308  -93.89
877.744361  0.24466  -93.61
877.844612  0.24583  -93.24
877.944862  0.24766  -92.83
878.045113  0.25016  -92.64
878.145363  0.25264  -92.47
878.245614  0.25630  -92.62
878.345865  0.25885  -92.66
878.446115  0.25815  -93.03
878.546366  0.26144  -93.46
878.646617  0.26255  -92.89
878.746867  0.26495  -92.94
878.847118  0.26686  -92.73
878.947368  0.26658  -92.81
879.047619  0.26814  -93.03
879.147870  0.26867  -93.12
879.248120  0.26992  -93.31
879.348371  0.26932  -93.42
879.448622  0.27033  -93.40
879.548872  0.27138  -93.58
879.649123  0.27284  -93.52
879.749373  0.27409  -93.68
879.849624  0.27541  -93.63
879.949875  0.27648  -93.59
880.050125  0.27893  -93.58
880.150376  0.27828  -93.91
880.250627  0.27890  -93.89
880.350877  0.27950  -93.90
880.451128  0.28162  -94.01
880.551378  0.28156  -93.64
880.651629  0.28259  -94.04
880.751880  0.28426  -94.11
880.852130  0.28536  -94.33
880.952381  0.28696  -94.25
881.052632  0.28859  -94.19
881.152882  0.28785  -93.99
881.253133  0.28787  -94.46
881.353383  0.28960  -94.42
881.453634  0.29130  -94.50
881.553885  0.29204  -94.70
881.654135  0.29283  -94.46
881.754386  0.29446  -94.80
881.854637  0.29380  -94.24
881.954887  0.29500  -95.20
882.055138  0.29660  -94.88
882.155388  0.29820  -94.71
882.255639  0.29836  -95.45
882.355890  0.29638  -93.88
882.456140  0.29870  -95.75
882.556391  0.30142  -95.01
882.656642  0.30028  -95.76
882.756892  0.30831  -94.74
882.857143  0.30590  -95.70
882.957393  0.30772  -93.11
883.057644  0.29901  -92.28
883.157895  0.31119  -91.69
883.258145  0.31940  -94.52
883.358396  0.30653  -95.75
883.458647  0.31252  -93.87
883.558897  0.31889  -95.99
883.659148  0.30994  -95.13
883.759398  0.31005  -95.72
883.859649  0.31037  -94.52
883.959900  0.31148  -94.81
884.060150  0.31999  -94.62
884.160401  0.31682  -95.68
884.260652  0.32045  -96.16
884.360902  0.31529  -96.34
884.461153  0.31807  -96.35
884.561404  0.31821  -96.07
884.661654  0.32156  -96.45
884.761905  0.32032  -96.52
884.862155  0.32259  -96.50
884.962406  0.32310  -96.65
885.062657  0.32358  -96.54
885.162907  0.32737  -96.51
885.263158  0.32742  -96.42
885.363409  0.32877  -96.21
885.463659  0.32933  -96.50
885.563910  0.32954  -96.46
885.664160  0.33017  -96.53
885.764411  0.33090  -96.85
885.864662  0.33195  -96.65
885.964912  0.33256  -96.78
886.065163  0.33337  -96.79
886.165414  0.33417  -96.92
886.265664  0.33571  -96.76
886.365915  0.33669  -96.77
886.466165  0.33935  -96.77
886.566416  0.34024  -96.75
886.666667  0.34166  -96.93
886.766917  0.34223  -97.19
886.867168  0.34238  -97.36
886.967419  0.34347  -97.22
887.067669  0.34574  -97.48
887.167920  0.34593  -97.58
887.268170  0.34658  -97.60
887.368421  0.34863  -97.52
887.468672  0.35065  -97.69
887.568922  0.35165  -97.65
887.669173  0.35273  -98.02
887.769424  0.35416  -98.07
887.869674  0.35480  -98.29
887.969925  0.35496  -98.34
888.070175  0.35634  -98.36
888.170426  0.35654  -98.34
888.270677  0.35650  -98.41
888.370927  0.35646  -98.19
888.471178  0.35758  -98.06
888.571429  0.35769  -98.12
888.671679  0.35730  -98.03
888.771930  0.35594  -98.27
888.872180  0.35632  -98.39
888.972431  0.35674  -98.48
889.072682  0.35732  -98.75
889.172932  0.35781  -99.02
889.273183  0.35996  -99.15
889.373434  0.36116  -99.39
889.473684  0.36326  -99.54
889.573935  0.36388  -99.62
889.674185  0.36525  -99.80
889.774436  0.36648 -100.00
889.874687  0.36797 -100.04
889.974937  0.36926 -100.19
890.075188  0.37064 -100.23
890.175439  0.37224 -100.17
890.275689  0.37344 -100.20
890.375940  0.37500 -100.01
890.476190  0.37566 -100.12
890.576441  0.37502 -100.09
890.676692  0.37481  -99.94
890.776942  0.37393 -100.07
890.877193  0.37460 -100.13
890.977444  0.37448 -100.28
891.077694  0.37521 -100.32
891.177945  0.37576 -100.43
891.278195  0.37661 -100.49
891.378446  0.37713 -100.50
891.478697  0.37793 -100.39
891.578947  0.37895 -100.43
891.679198  0.38026 -100.72
891.779449  0.38097 -100.70
891.879699  0.38145 -100.97
891.979950  0.38304 -101.00
892.080201  0.38459 -101.15
892.180451  0.38591 -101.54
892.280702  0.38677 -101.66
892.380952  0.38628 -101.86
892.481203  0.38630 -101.83
892.581454  0.38667 -101.91
892.681704  0.38753 -101.81
892.781955  0.38715 -101.57
892.882206  0.38645 -101.62
892.982456  0.38652 -101.71
893.082707  0.38606 -101.80
893.182957  0.38664 -102.01
893.283208  0.38748 -102.08
893.383459  0.38709 -102.20
893.483709  0.38774 -102.22
893.583960  0.38768 -102.25
893.684211  0.38816 -102.37
893.784461  0.38877 -102.50
893.884712  0.38939 -102.68
893.984962  0.39021 -102.67
894.085213  0.39175 -102.94
894.185464  0.39278 -103.03
894.285714  0.39409 -103.29
894.385965  0.39596 -103.34
894.486216  0.39726 -103.18
894.586466  0.39857 -103.51
894.686717  0.40004 -103.33
894.786967  0.40220 -103.11
894.887218  0.40178 -103.26
894.987469  0.40395 -103.33
895.087719  0.40409 -103.57
895.187970  0.40494 -103.57
895.288221  0.40618 -103.50
895.388471  0.40592 -103.50
895.488722  0.40545 -103.44
895.588972  0.40633 -103.54
895.689223  0.40726 -103.55
895.789474  0.40737 -103.48
895.889724  0.40766 -103.40
895.989975  0.40951 -103.36
896.090226  0.41082 -103.85
896.190476  0.41139 -103.93
896.290727  0.41262 -104.00
896.390977  0.41351 -103.95
896.491228  0.41616 -104.09
896.591479  0.41775 -104.26
896.691729  0.41895 -104.30
896.791980  0.41977 -104.36
896.892231  0.42059 -104.26
896.992481  0.41905 -104.23
897.092732  0.41925 -104.28
897.192982  0.41926 -104.73
897.293233  0.42024 -104.70
897.393484  0.42080 -104.72
897.493734  0.42298 -104.63
897.593985  0.42700 -104.74
897.694236  0.42692 -104.86
897.794486  0.42692 -105.12
897.894737  0.42654 -105.13
897.994987  0.42733 -105.27
898.095238  0.42923 -105.52
898.195489  0.43187 -105.35
898.295739  0.43406 -105.44
898.395990  0.43347 -105.48
898.496241  0.43280 -105.48
898.596491  0.43112 -105.43
898.696742  0.43208 -105.58
898.796992  0.43431 -105.61
898.897243  0.43251 -106.06
898.997494  0.43304 -106.46
899.097744  0.43592 -106.64
899.197995  0.44019 -106.47
899.298246  0.43925 -106.17
899.398496  0.44022 -106.61
899.498747  0.44499 -106.29
899.598997  0.44253 -106.39
899.699248  0.44527 -106.99
899.799499  0.44724 -106.72
899.899749  0.44552 -107.18
900.000000  0.44633 -107.39
