# MHz S MA R 50
!   freq        S11       
108.000000  0.98151  -56.08
110.454454  0.98198  -57.44
112.908909  0.98202  -58.80
115.363363  0.98295  -60.22
117.817818  0.98114  -61.63
120.272272  0.98092  -63.08
122.726727  0.98022  -64.48
125.181181  0.97935  -65.89
127.635636  0.97877  -67.35
130.090090  0.97785  -68.76
132.544545  0.97768  -70.19
134.998999  0.97708  -71.59
137.453453  0.97585  -72.99
139.907908  0.97535  -74.46
142.362362  0.97230  -75.84
144.816817  0.97158  -77.31
147.271271  0.97053  -78.76
149.725726  0.96923  -80.20
152.180180  0.96762  -81.68
154.634635  0.96719  -83.14
157.089089  0.96570  -84.59
159.543544  0.96385  -86.14
161.997998  0.96329  -87.63
164.452452  0.96171  -89.15
166.906907  0.95923  -90.69
169.361361  0.95772  -92.22
171.815816  0.95603  -93.74
174.270270  0.95373  -95.25
176.724725  0.95272  -96.80
179.179179  0.94943  -98.37
181.633634  0.94799  -99.93
184.088088  0.94601 -101.54
186.542543  0.94348 -103.11
188.996997  0.94090 -104.71
191.451451  0.93849 -106.33
193.905906  0.93609 -107.85
196.360360  0.93412 -109.51
198.814815  0.93116 -111.13
201.269269  0.92791 -112.76
203.723724  0.92503 -114.47
206.178178  0.92296 -116.17
208.632633  0.91892 -117.92
211.087087  0.91432 -119.68
213.541542  0.90912 -121.42
215.995996  0.90314 -123.15
218.450450  0.89667 -124.79
220.904905  0.89159 -126.38
223.359359  0.88586 -128.08
225.813814  0.87982 -129.72
228.268268  0.87245 -131.35
230.722723  0.86672 -132.76
233.177177  0.86286 -134.29
235.631632  0.85948 -135.83
238.086086  0.85555 -137.51
240.540541  0.85210 -139.19
242.994995  0.84813 -140.89
245.449449  0.84400 -142.66
247.903904  0.83868 -144.45
250.358358  0.83227 -146.28
252.812813  0.82542 -148.15
255.267267  0.81789 -149.94
257.721722  0.80888 -151.83
260.176176  0.79612 -153.67
262.630631  0.78330 -155.23
265.085085  0.77062 -156.71
267.539540  0.75630 -158.06
269.993994  0.74171 -159.11
272.448448  0.72727 -159.62
274.902903  0.72483 -159.14
277.357357  0.74073 -159.06
279.811812  0.78039 -160.59
282.266266  0.82460 -166.58
284.720721  0.76563 -175.45
287.175175  0.64984 -177.28
289.629630  0.58493 -172.34
292.084084  0.58002 -166.48
294.538539  0.60750 -162.92
296.992993  0.64639 -161.65
299.447447  0.68641 -162.15
301.901902  0.72060 -163.59
304.356356  0.74923 -165.59
306.810811  0.77121 -167.93
309.265265  0.78881 -170.34
311.719720  0.80423 -172.66
314.174174  0.81632 -174.96
316.628629  0.82828 -177.19
319.083083  0.83901 -179.42
321.537538  0.85167  178.34
323.991992  0.86412  175.99
326.446446  0.87495  173.43
328.900901  0.88472  170.92
331.355355  0.89396  168.33
333.809810  0.90402  165.70
336.264264  0.91211  163.07
338.718719  0.91797  160.22
341.173173  0.92569  157.56
343.627628  0.92958  154.62
346.082082  0.93264  151.75
348.536537  0.93681  148.83
350.990991  0.93954  145.94
353.445445  0.94083  143.04
355.899900  0.94117  140.10
358.354354  0.94071  137.10
360.808809  0.94074  134.08
363.263263  0.93832  131.19
365.717718  0.93861  128.15
368.172172  0.93697  125.07
370.626627  0.93316  122.03
373.081081  0.93129  118.92
375.535536  0.92882  115.75
377.989990  0.92429  112.52
380.444444  0.92202  109.25
382.898899  0.91524  105.90
385.353353  0.90941  102.54
387.807808  0.90381   99.14
390.262262  0.89839   95.65
392.716717  0.89162   92.13
395.171171  0.88413   88.53
397.625626  0.87554   84.81
400.080080  0.86665   81.16
402.534535  0.85839   77.41
404.988989  0.84829   73.61
407.443443  0.83785   69.77
409.897898  0.82945   65.77
412.352352  0.82081   61.60
414.806807  0.81018   57.25
417.261261  0.79750   52.54
419.715716  0.78257   47.76
422.170170  0.76408   43.00
424.624625  0.74643   38.23
427.079079  0.72870   33.20
429.533534  0.70869   28.01
431.987988  0.69007   22.52
434.442442  0.66230   17.29
436.896897  0.63900   11.91
439.351351  0.61842    6.46
441.805806  0.59905    0.40
444.260260  0.57644   -5.99
446.714715  0.55155  -12.78
449.169169  0.52720  -19.65
451.623624  0.50033  -26.97
454.078078  0.47277  -34.57
456.532533  0.44406  -42.46
458.986987  0.41415  -50.39
461.441441  0.38534  -58.22
463.895896  0.35998  -65.85
466.350350  0.33937  -73.79
468.804805  0.32185  -82.10
471.259259  0.30623  -90.80
473.713714  0.29198 -100.05
476.168168  0.27839 -109.27
478.622623  0.26670 -118.52
481.077077  0.25645 -127.49
483.531532  0.24656 -136.09
485.985986  0.23812 -143.87
488.440440  0.23119 -150.60
490.894895  0.22669 -156.32
493.349349  0.22700 -161.02
495.803804  0.23106 -165.40
498.258258  0.23834 -169.33
500.712713  0.24964 -173.70
503.167167  0.26206 -178.14
505.621622  0.27453  177.35
508.076076  0.28734  172.98
510.530531  0.30098  168.82
512.984985  0.31662  164.89
515.439439  0.33443  160.88
517.893894  0.35475  156.59
520.348348  0.37425  151.70
522.802803  0.39052  146.53
525.257257  0.40496  141.72
527.711712  0.41534  137.14
530.166166  0.42565  132.76
532.620621  0.43596  128.85
535.075075  0.44447  124.94
537.529530  0.45438  121.20
539.983984  0.46244  117.71
542.438438  0.47168  114.38
544.892893  0.48279  111.14
547.347347  0.49468  107.93
549.801802  0.50593  104.50
552.256256  0.51762  101.13
554.710711  0.52874   97.64
557.165165  0.53829   94.12
559.619620  0.54573   90.70
562.074074  0.55243   87.21
564.528529  0.55784   83.90
566.982983  0.56281   80.81
569.437437  0.56821   78.01
571.891892  0.57492   75.17
574.346346  0.58166   72.18
576.800801  0.58951   69.24
579.255255  0.59487   66.17
581.709710  0.60180   63.20
584.164164  0.60703   60.36
586.618619  0.61150   57.63
589.073073  0.61929   54.93
591.527528  0.62715   52.29
593.981982  0.63709   49.50
596.436436  0.64649   46.55
598.890891  0.65767   43.27
601.345345  0.66393   39.90
603.799800  0.67170   36.69
606.254254  0.67736   33.52
608.708709  0.68277   30.36
611.163163  0.68801   27.15
613.617618  0.69208   24.05
616.072072  0.69825   20.73
618.526527  0.70424   17.35
620.980981  0.70628   13.89
623.435435  0.70836   10.58
625.889890  0.70936    7.25
628.344344  0.70937    3.84
630.798799  0.70889    0.63
633.253253  0.70744   -2.49
635.707708  0.70670   -5.71
638.162162  0.70529   -8.98
640.616617  0.70261  -12.04
643.071071  0.70029  -14.94
645.525526  0.69951  -17.90
647.979980  0.69558  -21.32
650.434434  0.69812  -23.93
652.888889  0.69633  -26.93
655.343343  0.69517  -29.93
657.797798  0.69434  -33.04
660.252252  0.69304  -36.14
662.706707  0.69184  -39.07
665.161161  0.68962  -42.10
667.615616  0.68801  -45.07
670.070070  0.68594  -48.13
672.524525  0.68554  -51.06
674.978979  0.68503  -54.04
677.433433  0.68318  -57.08
679.887888  0.68218  -60.21
682.342342  0.68008  -63.24
684.796797  0.67833  -66.24
687.251251  0.67656  -69.22
689.705706  0.67636  -72.15
692.160160  0.67496  -75.17
694.614615  0.67350  -78.16
697.069069  0.67210  -81.28
699.523524  0.67048  -84.19
701.977978  0.66896  -87.23
704.432432  0.66851  -90.34
706.886887  0.66712  -93.43
709.341341  0.66471  -96.49
711.795796  0.66324  -99.47
714.250250  0.66242 -102.56
716.704705  0.65931 -105.67
719.159159  0.65441 -108.81
721.613614  0.65374 -111.69
724.068068  0.65055 -114.74
726.522523  0.64956 -117.66
728.976977  0.64763 -120.76
731.431431  0.64544 -123.79
733.885886  0.64482 -126.70
736.340340  0.64343 -129.81
738.794795  0.64428 -133.04
741.249249  0.64153 -136.15
743.703704  0.63915 -139.49
746.158158  0.63702 -142.89
748.612613  0.63364 -146.43
751.067067  0.62810 -149.73
753.521522  0.62340 -153.46
755.975976  0.61454 -157.12
758.430430  0.60538 -160.86
760.884885  0.59418 -164.72
763.339339  0.57943 -168.37
765.793794  0.55998 -172.31
768.248248  0.53877 -176.13
770.702703  0.51379 -179.58
773.157157  0.48557  177.04
775.611612  0.44763  173.49
778.066066  0.39737  171.00
780.520521  0.33664  172.34
782.974975  0.28841 -177.76
785.429429  0.30529 -162.20
787.883884  0.38300 -156.05
790.338338  0.46482 -158.98
792.792793  0.52250 -164.93
795.247247  0.55440 -171.21
797.701702  0.57239 -176.86
800.156156  0.57974  177.86
802.610611  0.58347  173.36
805.065065  0.58380  169.27
807.519520  0.57884  165.32
809.973974  0.57426  161.40
812.428428  0.56859  157.74
814.882883  0.55749  154.36
817.337337  0.54660  151.40
819.791792  0.53689  148.38
822.246246  0.52718  145.84
824.700701  0.51718  143.15
827.155155  0.50995  140.78
829.609610  0.50170  138.29
832.064064  0.49241  135.70
834.518519  0.48442  133.48
836.972973  0.47767  130.98
839.427427  0.46935  128.36
841.881882  0.46069  125.89
844.336336  0.44970  123.02
846.790791  0.43789  120.52
849.245245  0.42449  118.12
851.699700  0.41292  115.81
854.154154  0.40029  113.33
856.608609  0.38658  110.64
859.063063  0.37007  108.33
861.517518  0.34997  105.97
863.971972  0.32911  104.69
866.426426  0.30910  103.68
868.880881  0.29041  103.52
871.335335  0.27396  104.01
873.789790  0.26037  104.89
876.244244  0.24960  106.39
878.698699  0.24210  108.02
881.153153  0.23693  109.74
883.607608  0.23563  111.28
886.062062  0.23640  112.38
888.516517  0.23791  112.61
890.970971  0.23814  112.10
893.425425  0.23567  111.19
895.879880  0.23112  110.54
898.334334  0.22364  110.03
900.788789  0.21696  109.96
903.243243  0.20870  110.26
905.697698  0.20034  110.82
908.152152  0.19096  112.36
910.606607  0.18284  114.54
913.061061  0.17660  118.12
915.515516  0.17366  122.01
917.969970  0.17360  126.08
920.424424  0.17689  130.36
922.878879  0.18322  134.19
925.333333  0.19275  136.94
927.787788  0.20254  139.15
930.242242  0.21386  141.11
932.696697  0.22339  142.39
935.151151  0.23739  143.82
937.605606  0.25355  144.65
940.060060  0.26933  144.47
942.514515  0.28635  144.02
944.968969  0.29919  143.07
947.423423  0.31252  142.09
949.877878  0.32575  141.37
952.332332  0.33941  140.69
954.786787  0.35438  139.59
957.241241  0.36806  138.22
959.695696  0.38092  136.81
962.150150  0.39266  135.38
964.604605  0.40273  133.96
967.059059  0.41206  132.92
969.513514  0.42370  131.76
971.967968  0.43542  130.58
974.422422  0.44797  129.31
976.876877  0.45981  127.95
979.331331  0.47192  126.56
981.785786  0.48436  125.23
984.240240  0.49604  123.99
986.694695  0.50848  122.43
989.149149  0.52030  120.72
991.603604  0.53165  119.50
994.058058  0.54382  117.85
996.512513  0.55494  116.12
998.966967  0.56574  114.66
1001.421421  0.57803  113.01
1003.875876  0.58988  111.17
1006.330330  0.60045  109.49
1008.784785  0.60874  107.40
1011.239239  0.61621  105.65
1013.693694  0.62246  103.81
1016.148148  0.62999  102.04
1018.602603  0.63537  100.56
1021.057057  0.64307   99.06
1023.511512  0.64820   97.32
1025.965966  0.65507   95.69
1028.420420  0.66066   94.20
1030.874875  0.66743   92.83
1033.329329  0.67322   91.13
1035.783784  0.67996   89.66
1038.238238  0.68652   88.24
1040.692693  0.69296   86.64
1043.147147  0.70064   85.03
1045.601602  0.70623   83.29
1048.056056  0.71309   81.74
1050.510511  0.71890   80.08
1052.964965  0.72618   78.21
1055.419419  0.72918   76.48
1057.873874  0.73318   74.82
1060.328328  0.73702   73.15
1062.782783  0.74106   71.37
1065.237237  0.74452   69.63
1067.691692  0.74691   68.01
1070.146146  0.74956   66.27
1072.600601  0.75237   64.69
1075.055055  0.75322   62.85
1077.509510  0.75493   61.22
1079.963964  0.75290   59.60
1082.418418  0.75597   57.93
1084.872873  0.75931   56.36
1087.327327  0.75877   54.57
1089.781782  0.75927   52.96
1092.236236  0.76558   51.52
1094.690691  0.76039   49.65
1097.145145  0.75977   47.93
1099.599600  0.75781   46.32
1102.054054  0.75958   44.45
1104.508509  0.75887   42.69
1106.962963  0.75529   41.14
1109.417417  0.75557   39.31
1111.871872  0.75280   37.52
1114.326326  0.74943   35.67
1116.780781  0.74687   33.91
1119.235235  0.74463   32.03
1121.689690  0.73861   30.49
1124.144144  0.73506   28.58
1126.598599  0.73007   26.93
1129.053053  0.72729   24.85
1131.507508  0.72288   22.85
1133.961962  0.71764   20.80
1136.416416  0.70712   18.88
1138.870871  0.69940   16.80
1141.325325  0.69016   14.78
1143.779780  0.67906   12.57
1146.234234  0.66809   10.50
1148.688689  0.65323    8.33
1151.143143  0.63748    6.31
1153.597598  0.62225    4.01
1156.052052  0.60450    2.26
1158.506507  0.58645    0.18
1160.960961  0.56561   -1.77
1163.415415  0.54503   -3.77
1165.869870  0.52168   -5.54
1168.324324  0.49615   -7.33
1170.778779  0.46889   -8.51
1173.233233  0.44060   -9.57
1175.687688  0.41175  -10.06
1178.142142  0.38110   -9.80
1180.596597  0.35180   -8.68
1183.051051  0.32470   -5.75
1185.505506  0.30675   -1.13
1187.959960  0.30375    4.81
1190.414414  0.31607    9.19
1192.868869  0.33749   11.12
1195.323323  0.35215   10.14
1197.777778  0.35526    8.52
1200.232232  0.35021    7.28
1202.686687  0.34014    7.21
1205.141141  0.33195    8.57
1207.595596  0.32662   10.26
1210.050050  0.32539   12.08
1212.504505  0.32721   14.05
1214.958959  0.33312   16.02
1217.413413  0.33992   17.45
1219.867868  0.35057   18.65
1222.322322  0.36199   19.32
1224.776777  0.37422   19.82
1227.231231  0.38760   19.97
1229.685686  0.40031   19.36
1232.140140  0.41279   19.09
1234.594595  0.42518   18.42
1237.049049  0.43652   17.49
1239.503504  0.44849   16.55
1241.957958  0.46005   15.69
1244.412412  0.47188   14.45
1246.866867  0.48257   13.00
1249.321321  0.49125   11.52
1251.775776  0.50059   10.06
1254.230230  0.50895    8.42
1256.684685  0.51554    6.71
1259.139139  0.51964    4.90
1261.593594  0.52355    3.54
1264.048048  0.52544    1.90
1266.502503  0.52990    0.29
1268.956957  0.53226   -1.02
1271.411411  0.53460   -2.71
1273.865866  0.53617   -4.04
1276.320320  0.53754   -5.60
1278.774775  0.53873   -7.20
1281.229229  0.54014   -8.66
1283.683684  0.54028  -10.21
1286.138138  0.54033  -11.67
1288.592593  0.54146  -12.97
1291.047047  0.54238  -14.53
1293.501502  0.54084  -15.93
1295.955956  0.54113  -17.43
1298.410410  0.53667  -19.16
1300.864865  0.54104  -20.40
1303.319319  0.53994  -22.17
1305.773774  0.53799  -23.74
1308.228228  0.53606  -25.51
1310.682683  0.53277  -26.93
1313.137137  0.52940  -28.55
1315.591592  0.52445  -29.98
1318.046046  0.52009  -31.48
1320.500501  0.51585  -33.07
1322.954955  0.51155  -34.36
1325.409409  0.50560  -35.71
1327.863864  0.50165  -36.86
1330.318318  0.49752  -38.20
1332.772773  0.49324  -39.46
1335.227227  0.48905  -40.75
1337.681682  0.48477  -42.01
1340.136136  0.48092  -43.17
1342.590591  0.47531  -44.49
1345.045045  0.47196  -45.55
1347.499499  0.46616  -46.83
1349.953954  0.46208  -47.99
1352.408408  0.45945  -49.13
1354.862863  0.45480  -50.28
1357.317317  0.45115  -51.26
1359.771772  0.44988  -52.60
1362.226226  0.44548  -53.67
1364.680681  0.44257  -55.01
1367.135135  0.44028  -56.24
1369.589590  0.43833  -57.64
1372.044044  0.43535  -59.13
1374.498498  0.43090  -60.35
1376.952953  0.42677  -62.00
1379.407407  0.42212  -63.56
1381.861862  0.41688  -65.24
1384.316316  0.41071  -66.65
1386.770771  0.40578  -68.34
1389.225225  0.39847  -69.62
1391.679680  0.39095  -71.03
1394.134134  0.38408  -72.62
1396.588589  0.37595  -73.58
1399.043043  0.36886  -74.71
1401.497497  0.36221  -75.69
1403.951952  0.35439  -76.59
1406.406406  0.34050  -77.00
1408.860861  0.34194  -78.11
1411.315315  0.33586  -78.71
1413.769770  0.32933  -79.22
1416.224224  0.32688  -79.87
1418.678679  0.32161  -80.64
1421.133133  0.31969  -81.06
1423.587588  0.31667  -81.88
1426.042042  0.31222  -82.77
1428.496496  0.30903  -83.33
1430.950951  0.30624  -84.25
1433.405405  0.30350  -85.34
1435.859860  0.29962  -86.19
1438.314314  0.29459  -87.41
1440.768769  0.28992  -88.17
1443.223223  0.28599  -89.15
1445.677678  0.28091  -89.97
1448.132132  0.27704  -90.59
1450.586587  0.27252  -91.09
1453.041041  0.26792  -91.70
1455.495495  0.26494  -92.26
1457.949950  0.26106  -92.66
1460.404404  0.25721  -93.01
1462.858859  0.25385  -93.22
1465.313313  0.25006  -93.51
1467.767768  0.24796  -93.44
1470.222222  0.24762  -93.48
1472.676677  0.24667  -93.39
1475.131131  0.24675  -93.56
1477.585586  0.24840  -94.10
1480.040040  0.24963  -94.38
1482.494494  0.25038  -95.16
1484.948949  0.24933  -96.09
1487.403403  0.25088  -96.78
1489.857858  0.24948  -97.71
1492.312312  0.24968  -98.24
1494.766767  0.24796  -99.51
1497.221221  0.24729  -99.85
1499.675676  0.24581 -100.39
1502.130130  0.24411 -100.61
1504.584585  0.24454 -100.82
1507.039039  0.24494 -100.75
1509.493493  0.24775 -100.69
1511.947948  0.25009 -101.05
1514.402402  0.25300 -102.44
1516.856857  0.25703 -102.14
1519.311311  0.26096 -103.01
1521.765766  0.26469 -103.50
1524.220220  0.26867 -104.45
1526.674675  0.27361 -105.47
1529.129129  0.27704 -106.95
1531.583584  0.28099 -108.39
1534.038038  0.28479 -109.83
1536.492492  0.28817 -110.98
1538.946947  0.29110 -112.38
1541.401401  0.29360 -114.02
1543.855856  0.29535 -115.26
1546.310310  0.29766 -116.44
1548.764765  0.30075 -117.86
1551.219219  0.30215 -119.49
1553.673674  0.30479 -120.79
1556.128128  0.30788 -122.16
1558.582583  0.30951 -123.81
1561.037037  0.31173 -125.22
1563.491491  0.31291 -126.63
1565.945946  0.31499 -128.04
1568.400400  0.31629 -129.58
1570.854855  0.31838 -131.05
1573.309309  0.32021 -132.50
1575.763764  0.32374 -133.67
1578.218218  0.32510 -135.39
1580.672673  0.32661 -136.76
1583.127127  0.32839 -138.40
1585.581582  0.33091 -139.41
1588.036036  0.33289 -141.18
1590.490490  0.33561 -142.27
1592.944945  0.33854 -143.97
1595.399399  0.34071 -145.23
1597.853854  0.34366 -146.84
1600.308308  0.34636 -148.13
1602.762763  0.34886 -149.71
1605.217217  0.35069 -150.98
1607.671672  0.35204 -152.64
1610.126126  0.35338 -154.21
1612.580581  0.35554 -155.40
1615.035035  0.35738 -157.14
1617.489489  0.35995 -158.13
1619.943944  0.36322 -159.24
1622.398398  0.36602 -160.65
1624.852853  0.37316 -162.13
1627.307307  0.37789 -163.34
1629.761762  0.38271 -165.32
1632.216216  0.38641 -166.61
1634.670671  0.39030 -168.32
1637.125125  0.39409 -169.96
1639.579580  0.39692 -171.65
1642.034034  0.40074 -173.59
1644.488488  0.40274 -174.67
1646.942943  0.40670 -176.46
1649.397397  0.40877 -178.00
1651.851852  0.41110 -179.84
1654.306306  0.41429  178.85
1656.760761  0.41634  177.00
1659.215215  0.41870  175.66
1661.669670  0.42132  173.88
1664.124124  0.42488  172.53
1666.578579  0.42553  170.83
1669.033033  0.42886  169.43
1671.487487  0.43120  167.89
1673.941942  0.43432  166.17
1676.396396  0.43664  164.60
1678.850851  0.43761  163.23
1681.305305  0.44111  161.65
1683.759760  0.44300  159.95
1686.214214  0.44598  158.82
1688.668669  0.44840  157.46
1691.123123  0.45011  156.12
1693.577578  0.45325  154.52
1696.032032  0.45785  153.00
1698.486486  0.46103  151.45
1700.940941  0.46063  150.14
1703.395395  0.46254  148.33
1705.849850  0.46319  147.01
1708.304304  0.46622  145.39
1710.758759  0.46625  144.18
1713.213213  0.46839  142.47
1715.667668  0.47092  141.37
1718.122122  0.47276  140.00
1720.576577  0.47899  138.65
1723.031031  0.48000  137.32
1725.485485  0.48434  135.61
1727.939940  0.48585  134.11
1730.394394  0.49258  131.27
1732.848849  0.49049  131.11
1735.303303  0.49215  129.72
1737.757758  0.49391  128.31
1740.212212  0.49550  126.79
1742.666667  0.49678  125.07
1745.121121  0.49538  123.57
1747.575576  0.49868  122.64
1750.030030  0.49952  120.94
1752.484484  0.50169  119.34
1754.938939  0.49977  117.93
1757.393393  0.50027  116.86
1759.847848  0.50203  115.28
1762.302302  0.50225  113.72
1764.756757  0.50094  112.34
1767.211211  0.50155  111.29
1769.665666  0.50066  110.00
1772.120120  0.50262  108.90
1774.574575  0.50206  107.25
1777.029029  0.50275  105.84
1779.483483  0.50517  104.61
1781.937938  0.50352  103.31
1784.392392  0.50453  101.82
1786.846847  0.50274  100.53
1789.301301  0.50285   99.10
1791.755756  0.50015   97.84
1794.210210  0.49851   96.56
1796.664665  0.49694   95.05
1799.119119  0.49591   94.09
1801.573574  0.49632   92.77
1804.028028  0.49694   91.77
1806.482482  0.49356   90.19
1808.936937  0.49301   89.18
1811.391391  0.49232   87.96
1813.845846  0.48819   86.75
1816.300300  0.48895   85.52
1818.754755  0.48889   84.26
1821.209209  0.48587   83.43
1823.663664  0.48752   82.00
