# MHz S MA R 50
!   freq        S11       
860.000000  0.31819  -83.45
860.100251  0.31863  -83.38
860.200501  0.31911  -83.51
860.300752  0.31990  -83.51
860.401003  0.33707  -84.28
860.501253  0.33892  -84.20
860.601504  0.33818  -84.25
860.701754  0.33940  -84.27
860.802005  0.34031  -84.41
860.902256  0.34143  -84.49
861.002506  0.34179  -84.58
861.102757  0.34306  -84.57
861.203008  0.34364  -84.70
861.303258  0.34437  -84.74
861.403509  0.34485  -84.87
861.503759  0.34464  -85.01
861.604010  0.34603  -85.15
861.704261  0.34659  -85.20
861.804511  0.34763  -85.29
861.904762  0.34831  -85.42
862.005013  0.34864  -85.37
862.105263  0.35060  -85.62
862.205514  0.34971  -85.53
862.305764  0.35107  -85.61
862.406015  0.35059  -85.86
862.506266  0.35222  -86.19
862.606516  0.35319  -86.15
862.706767  0.35394  -86.14
862.807018  0.35661  -86.56
862.907268  0.35609  -86.51
863.007519  0.35685  -86.51
863.107769  0.35761  -86.61
863.208020  0.35844  -86.64
863.308271  0.35957  -86.74
863.408521  0.36035  -86.94
863.508772  0.36010  -86.83
863.609023  0.36136  -87.08
863.709273  0.36189  -87.23
863.809524  0.36231  -87.27
863.909774  0.36349  -87.42
864.010025  0.36455  -87.43
864.110276  0.36483  -87.51
864.210526  0.36577  -87.76
864.310777  0.36581  -87.72
864.411028  0.36708  -87.83
864.511278  0.36707  -87.91
864.611529  0.36770  -87.90
864.711779  0.36840  -88.11
864.812030  0.36858  -88.00
864.912281  0.36934  -87.96
865.012531  0.37018  -88.02
865.112782  0.37123  -87.98
865.213033  0.37088  -88.07
865.313283  0.37282  -88.05
865.413534  0.37306  -88.17
865.513784  0.37400  -88.28
865.614035  0.37462  -88.36
865.714286  0.37568  -88.52
865.814536  0.37602  -88.57
865.914787  0.37681  -88.76
866.015038  0.37669  -88.67
866.115288  0.37809  -88.76
866.215539  0.37860  -88.80
866.315789  0.37914  -88.91
866.416040  0.38017  -89.04
866.516291  0.38150  -89.04
866.616541  0.38172  -89.14
866.716792  0.38258  -89.14
866.817043  0.38279  -89.36
866.917293  0.38394  -89.48
867.017544  0.38484  -89.38
867.117794  0.38592  -89.43
867.218045  0.38639  -89.61
867.318296  0.38632  -89.64
867.418546  0.38808  -89.75
867.518797  0.38858  -89.76
867.619048  0.38898  -89.83
867.719298  0.38986  -89.88
867.819549  0.39030  -90.15
867.919799  0.39061  -90.12
868.020050  0.39191  -90.42
868.120301  0.39221  -90.56
868.220551  0.39217  -90.61
868.320802  0.39310  -90.71
868.421053  0.39352  -90.81
868.521303  0.39453  -90.89
868.621554  0.39486  -90.83
868.721805  0.39552  -90.98
868.822055  0.39592  -91.02
868.922306  0.39683  -91.09
869.022556  0.39732  -91.17
869.122807  0.39769  -91.41
869.223058  0.39846  -91.46
869.323308  0.39865  -91.55
869.423559  0.39997  -91.73
869.523810  0.40035  -91.80
869.624060  0.40147  -91.96
869.724311  0.40167  -92.13
869.824561  0.40239  -92.14
869.924812  0.40317  -92.34
870.025063  0.40400  -92.27
870.125313  0.40390  -92.40
870.225564  0.40445  -92.53
870.325815  0.40593  -92.48
870.426065  0.40631  -92.56
870.526316  0.40716  -92.46
870.626566  0.40757  -92.50
870.726817  0.40816  -92.47
870.827068  0.40936  -92.45
870.927318  0.41030  -92.63
871.027569  0.41097  -92.60
871.127820  0.41134  -92.69
871.228070  0.41245  -92.76
871.328321  0.41338  -92.90
871.428571  0.41422  -92.96
871.528822  0.41515  -93.10
871.629073  0.41514  -93.16
871.729323  0.41589  -93.26
871.829574  0.41690  -93.40
871.929825  0.41760  -93.34
872.030075  0.41786  -93.46
872.130326  0.41858  -93.47
872.230576  0.41928  -93.55
872.330827  0.41970  -93.76
872.431078  0.41998  -93.82
872.531328  0.42081  -93.88
872.631579  0.42148  -93.93
872.731830  0.42233  -94.09
872.832080  0.42294  -94.04
872.932331  0.42320  -94.33
873.032581  0.42341  -94.46
873.132832  0.42428  -94.34
873.233083  0.42445  -94.54
873.333333  0.42522  -94.60
873.433584  0.42616  -94.69
873.533835  0.42676  -94.76
873.634085  0.42728  -94.86
873.734336  0.42866  -94.97
873.834586  0.42884  -95.05
873.934837  0.42926  -95.14
874.035088  0.42897  -95.26
874.135338  0.43059  -95.34
874.235589  0.43101  -95.36
874.335840  0.43095  -95.36
874.436090  0.43281  -95.41
874.536341  0.43282  -95.46
874.636591  0.43365  -95.52
874.736842  0.43364  -95.70
874.837093  0.43308  -95.67
874.937343  0.43375  -95.84
875.037594  0.43573  -95.99
875.137845  0.43524  -95.95
875.238095  0.43524  -96.00
875.338346  0.43660  -96.04
875.438596  0.43767  -96.13
875.538847  0.43795  -96.33
875.639098  0.43770  -96.35
875.739348  0.43846  -96.49
875.839599  0.43993  -96.45
875.939850  0.44036  -96.66
876.040100  0.44061  -96.70
876.140351  0.44059  -96.92
876.240602  0.44193  -96.86
876.340852  0.44307  -96.99
876.441103  0.44259  -97.02
876.541353  0.44347  -97.14
876.641604  0.44392  -97.13
876.741855  0.44510  -97.26
876.842105  0.44620  -97.44
876.942356  0.44572  -97.45
877.042607  0.44635  -97.46
877.142857  0.44670  -97.56
877.243108  0.44825  -97.62
877.343358  0.44734  -97.74
877.443609  0.44917  -97.75
877.543860  0.44964  -97.80
877.644110  0.45022  -97.95
877.744361  0.45092  -97.96
877.844612  0.45192  -98.14
877.944862  0.45260  -98.22
878.045113  0.45292  -98.23
878.145363  0.45271  -98.34
878.245614  0.45361  -98.51
878.345865  0.45448  -98.43
878.446115  0.45512  -98.56
878.546366  0.45568  -98.62
878.646617  0.45602  -98.66
878.746867  0.45717  -98.76
878.847118  0.45865  -98.77
878.947368  0.45801  -98.89
879.047619  0.45910  -99.04
879.147870  0.45878  -99.14
879.248120  0.46103  -99.16
879.348371  0.45934  -99.27
879.448622  0.46196  -99.23
879.548872  0.46180  -99.35
879.649123  0.46241  -99.43
879.749373  0.46333  -99.57
879.849624  0.46408  -99.62
879.949875  0.46348  -99.73
880.050125  0.46536  -99.67
880.150376  0.46520  -99.95
880.250627  0.46660 -100.08
880.350877  0.46802  -99.97
880.451128  0.46864 -100.15
880.551378  0.46732 -100.21
880.651629  0.46846 -100.32
880.751880  0.46789 -100.27
880.852130  0.47014 -100.51
880.952381  0.47005 -100.57
881.052632  0.46995 -100.54
881.152882  0.47080 -100.70
881.253133  0.47187 -100.78
881.353383  0.47296 -100.97
881.453634  0.47287 -101.00
881.553885  0.47346 -101.08
881.654135  0.47337 -101.33
881.754386  0.47553 -101.30
881.854637  0.47558 -101.46
881.954887  0.47656 -101.40
882.055138  0.47749 -101.50
882.155388  0.47661 -101.57
882.255639  0.47788 -101.77
882.355890  0.47884 -101.75
882.456140  0.48017 -101.87
882.556391  0.47975 -101.94
882.656642  0.48077 -102.10
882.756892  0.48130 -102.08
882.857143  0.48127 -102.25
882.957393  0.48173 -102.26
883.057644  0.48277 -102.44
883.157895  0.48314 -102.46
883.258145  0.48377 -102.62
883.358396  0.48395 -102.68
883.458647  0.48573 -102.81
883.558897  0.48554 -102.81
883.659148  0.48537 -102.98
883.759398  0.48656 -102.91
883.859649  0.48752 -103.08
883.959900  0.48730 -103.20
884.060150  0.48789 -103.14
884.160401  0.48922 -103.26
884.260652  0.48953 -103.44
884.360902  0.48863 -103.80
884.461153  0.49060 -103.99
884.561404  0.49198 -104.25
884.661654  0.49437 -104.64
884.761905  0.49106 -104.90
884.862155  0.49156 -105.24
884.962406  0.48972 -105.12
885.062657  0.49127 -105.23
885.162907  0.49173 -105.13
885.263158  0.49402 -105.15
885.363409  0.49400 -105.11
885.463659  0.49414 -105.06
885.563910  0.49330 -105.12
885.664160  0.49371 -105.19
885.764411  0.49400 -105.31
885.864662  0.49497 -105.28
885.964912  0.49525 -105.34
886.065163  0.49627 -105.46
886.165414  0.49432 -105.72
886.265664  0.49725 -105.52
886.365915  0.49625 -105.83
886.466165  0.49808 -105.97
886.566416  0.49717 -105.92
886.666667  0.49847 -105.93
886.766917  0.49954 -106.10
886.867168  0.49988 -106.24
886.967419  0.50052 -106.22
887.067669  0.50055 -106.35
887.167920  0.50089 -106.42
887.268170  0.50361 -106.55
887.368421  0.50289 -106.68
887.468672  0.50234 -106.66
887.568922  0.50230 -106.80
887.669173  0.50417 -107.04
887.769424  0.50266 -106.95
887.869674  0.50449 -106.98
887.969925  0.50662 -107.25
888.070175  0.50486 -107.23
888.170426  0.50613 -107.45
888.270677  0.50709 -107.63
888.370927  0.50663 -107.55
888.471178  0.50905 -107.58
888.571429  0.50826 -107.71
888.671679  0.50837 -107.81
888.771930  0.50784 -108.04
888.872180  0.50980 -108.02
888.972431  0.51022 -108.14
889.072682  0.51083 -108.08
889.172932  0.51095 -108.28
889.273183  0.51162 -108.32
889.373434  0.51193 -108.41
889.473684  0.51290 -108.60
889.573935  0.51207 -108.55
889.674185  0.51334 -108.63
889.774436  0.51371 -108.78
889.874687  0.51271 -108.82
889.974937  0.51425 -108.90
890.075188  0.51444 -109.12
890.175439  0.51497 -109.10
890.275689  0.51390 -109.31
890.375940  0.51442 -109.29
890.476190  0.51608 -109.43
890.576441  0.51582 -109.53
890.676692  0.51577 -109.63
890.776942  0.51685 -109.64
890.877193  0.51769 -109.83
890.977444  0.51787 -109.83
891.077694  0.51738 -109.90
891.177945  0.51845 -110.15
891.278195  0.51849 -110.23
891.378446  0.51953 -110.25
891.478697  0.52013 -110.27
891.578947  0.52009 -110.42
891.679198  0.52118 -110.46
891.779449  0.52050 -110.54
891.879699  0.52060 -110.79
891.979950  0.52146 -110.75
892.080201  0.52223 -110.86
892.180451  0.52201 -111.01
892.280702  0.52166 -111.01
892.380952  0.52297 -111.05
892.481203  0.52321 -111.07
892.581454  0.52289 -111.19
892.681704  0.52365 -111.36
892.781955  0.52420 -111.22
892.882206  0.52332 -111.36
892.982456  0.52508 -111.55
893.082707  0.52549 -111.62
893.182957  0.52559 -111.72
893.283208  0.52552 -111.63
893.383459  0.52607 -111.72
893.483709  0.52632 -111.88
893.583960  0.52667 -111.98
893.684211  0.52708 -112.02
893.784461  0.52879 -112.22
893.884712  0.52804 -112.27
893.984962  0.52910 -112.22
894.085213  0.52930 -112.40
894.185464  0.52898 -112.43
894.285714  0.53121 -112.63
894.385965  0.53014 -112.79
894.486216  0.53108 -112.65
894.586466  0.53080 -112.84
894.686717  0.53086 -112.91
894.786967  0.53285 -112.91
894.887218  0.53160 -113.11
894.987469  0.53313 -113.13
895.087719  0.53316 -113.18
895.187970  0.53370 -113.30
895.288221  0.53466 -113.22
895.388471  0.53279 -113.50
895.488722  0.53385 -113.40
895.588972  0.53563 -113.55
895.689223  0.53596 -113.68
895.789474  0.53616 -113.81
895.889724  0.53725 -113.80
895.989975  0.53557 -113.75
896.090226  0.53638 -113.96
896.190476  0.53690 -114.05
896.290727  0.53686 -114.04
896.390977  0.53760 -114.16
896.491228  0.53905 -114.14
896.591479  0.53814 -114.29
896.691729  0.53811 -114.28
896.791980  0.53782 -114.44
896.892231  0.53942 -114.38
896.992481  0.53865 -114.45
897.092732  0.53953 -114.55
897.192982  0.53999 -114.75
897.293233  0.54119 -114.90
897.393484  0.53883 -114.96
897.493734  0.54102 -114.88
897.593985  0.54156 -115.02
897.694236  0.54027 -115.12
897.794486  0.54116 -115.30
897.894737  0.54194 -115.28
897.994987  0.54192 -115.41
898.095238  0.54192 -115.53
898.195489  0.54387 -115.45
898.295739  0.54453 -115.58
898.395990  0.54456 -115.65
898.496241  0.54526 -115.85
898.596491  0.54504 -115.83
898.696742  0.54655 -115.90
898.796992  0.54588 -116.32
898.897243  0.54709 -116.21
898.997494  0.54636 -116.28
899.097744  0.54801 -116.29
899.197995  0.54990 -116.43
899.298246  0.54757 -116.37
899.398496  0.54814 -116.53
899.498747  0.54953 -116.51
899.598997  0.55082 -116.64
899.699248  0.55000 -116.66
899.799499  0.55183 -116.81
899.899749  0.54921 -116.89
900.000000  0.55012 -116.74
