# MHz S MA R 50
!   freq        S11       
860.000000  0.12567 -119.50
860.100251  0.12604 -117.71
860.200501  0.12668 -116.06
860.300752  0.12699 -115.07
860.401003  0.13763 -118.44
860.501253  0.13886 -118.13
860.601504  0.13950 -117.81
860.701754  0.14017 -117.60
860.802005  0.14121 -117.60
860.902256  0.14109 -117.73
861.002506  0.14063 -117.50
861.102757  0.14119 -117.31
861.203008  0.14103 -117.25
861.303258  0.14131 -116.78
861.403509  0.14142 -116.69
861.503759  0.14182 -116.23
861.604010  0.14205 -116.00
861.704261  0.14213 -115.54
861.804511  0.14283 -115.14
861.904762  0.14318 -114.83
862.005013  0.14383 -114.39
862.105263  0.14520 -114.06
862.205514  0.14645 -113.57
862.305764  0.14765 -113.59
862.406015  0.14856 -113.56
862.506266  0.14998 -113.60
862.606516  0.15096 -113.44
862.706767  0.15192 -113.19
862.807018  0.15370 -113.28
862.907268  0.15297 -113.12
863.007519  0.15338 -112.63
863.107769  0.15414 -112.37
863.208020  0.15486 -111.95
863.308271  0.15542 -111.69
863.408521  0.15612 -111.51
863.508772  0.15664 -111.02
863.609023  0.15798 -110.83
863.709273  0.15811 -110.65
863.809524  0.15829 -110.58
863.909774  0.15773 -109.80
864.010025  0.16192 -108.12
864.110276  0.16371 -108.34
864.210526  0.16460 -107.26
864.310777  0.16558 -107.14
864.411028  0.16674 -106.70
864.511278  0.16742 -106.51
864.611529  0.16825 -106.04
864.711779  0.16858 -105.71
864.812030  0.16814 -105.59
864.912281  0.16883 -105.73
865.012531  0.16932 -105.77
865.112782  0.17049 -105.72
865.213033  0.17220 -105.21
865.313283  0.17364 -105.06
865.413534  0.17434 -105.14
865.513784  0.17485 -105.15
865.614035  0.17459 -105.43
865.714286  0.17435 -105.52
865.814536  0.17391 -105.28
865.914787  0.17604 -104.66
866.015038  0.17817 -104.19
866.115288  0.18031 -104.14
866.215539  0.17997 -104.50
866.315789  0.17873 -104.34
866.416040  0.17790 -103.13
866.516291  0.18081 -101.37
866.616541  0.18680 -102.16
866.716792  0.18392 -104.02
866.817043  0.18018 -102.66
866.917293  0.18602 -101.83
867.017544  0.18804 -103.05
867.117794  0.18528 -103.25
867.218045  0.18871 -101.93
867.318296  0.19040 -102.69
867.418546  0.18660 -101.45
867.518797  0.19175 -100.95
867.619048  0.19016 -101.39
867.719298  0.19242 -100.81
867.819549  0.18920 -100.23
867.919799  0.19058 -101.03
868.020050  0.19618 -101.92
868.120301  0.19872 -102.01
868.220551  0.19988 -102.03
868.320802  0.20027 -102.15
868.421053  0.20153 -102.92
868.521303  0.20150 -102.23
868.621554  0.20225 -103.07
868.721805  0.20324 -103.10
868.822055  0.20262 -102.91
868.922306  0.20275 -102.98
869.022556  0.20342 -102.89
869.122807  0.20389 -102.92
869.223058  0.20394 -102.80
869.323308  0.20404 -102.83
869.423559  0.20477 -102.89
869.523810  0.20573 -102.65
869.624060  0.20714 -102.84
869.724311  0.20806 -102.47
869.824561  0.20923 -102.39
869.924812  0.21046 -102.17
870.025063  0.21149 -102.08
870.125313  0.21169 -102.16
870.225564  0.21267 -102.31
870.325815  0.21327 -102.13
870.426065  0.21415 -102.20
870.526316  0.21530 -102.29
870.626566  0.21527 -102.49
870.726817  0.21554 -102.56
870.827068  0.21655 -102.37
870.927318  0.21690 -102.10
871.027569  0.21852 -101.75
871.127820  0.21946 -101.48
871.228070  0.22132 -101.15
871.328321  0.22203 -100.84
871.428571  0.22421 -100.74
871.528822  0.22474 -100.88
871.629073  0.22508 -100.76
871.729323  0.22450 -100.85
871.829574  0.22418 -100.68
871.929825  0.22546 -100.85
872.030075  0.22375 -101.13
872.130326  0.22297 -100.17
872.230576  0.22470  -99.69
872.330827  0.22632  -99.54
872.431078  0.22628  -99.31
872.531328  0.22572  -99.15
872.631579  0.22622  -98.97
872.731830  0.22703  -99.02
872.832080  0.22739  -98.92
872.932331  0.22712  -99.27
873.032581  0.22781  -99.27
873.132832  0.22884  -99.24
873.233083  0.22979  -99.52
873.333333  0.22878  -99.75
873.433584  0.22845  -99.82
873.533835  0.22981  -99.54
873.634085  0.22872  -98.15
873.734336  0.22707  -97.93
873.834586  0.22783  -98.48
873.934837  0.23098  -98.87
874.035088  0.23273  -98.85
874.135338  0.23426  -98.46
874.235589  0.23563  -98.33
874.335840  0.23630  -97.87
874.436090  0.23689  -97.91
874.536341  0.23782  -97.62
874.636591  0.23961  -97.66
874.736842  0.24037  -97.63
874.837093  0.24077  -97.41
874.937343  0.24147  -97.37
875.037594  0.24435  -97.59
875.137845  0.24305  -97.22
875.238095  0.24490  -97.37
875.338346  0.24238  -97.17
875.438596  0.24419  -97.28
875.538847  0.24226  -97.62
875.639098  0.24399  -97.30
875.739348  0.24419  -97.14
875.839599  0.24587  -97.59
875.939850  0.24710  -97.08
876.040100  0.24509  -97.43
876.140351  0.24986  -98.57
876.240602  0.25387  -97.67
876.340852  0.25029  -96.67
876.441103  0.25125  -96.59
876.541353  0.25463  -96.34
876.641604  0.24816  -96.94
876.741855  0.25199  -98.06
876.842105  0.26761  -97.39
876.942356  0.26654  -95.09
877.042607  0.26035  -94.19
877.142857  0.25870  -95.85
877.243108  0.26210  -96.42
877.343358  0.26567  -96.96
877.443609  0.26800  -96.32
877.543860  0.27239  -95.49
877.644110  0.27724  -95.26
877.744361  0.27985  -95.44
877.844612  0.28031  -95.57
877.944862  0.27770  -96.59
878.045113  0.27357  -96.43
878.145363  0.27333  -95.71
878.245614  0.27412  -95.82
878.345865  0.27221  -95.97
878.446115  0.27307  -94.83
878.546366  0.27935  -94.40
878.646617  0.28507  -95.31
878.746867  0.28547  -96.28
878.847118  0.28402  -96.27
878.947368  0.28335  -96.45
879.047619  0.28461  -96.16
879.147870  0.28437  -96.11
879.248120  0.28581  -96.05
879.348371  0.28668  -96.01
879.448622  0.28844  -95.96
879.548872  0.28862  -96.09
879.649123  0.28942  -95.97
879.749373  0.28933  -96.02
879.849624  0.28987  -95.97
879.949875  0.28999  -96.00
880.050125  0.29386  -95.97
880.150376  0.29727  -95.82
880.250627  0.29717  -95.55
880.350877  0.29870  -95.74
880.451128  0.29784  -95.87
880.551378  0.29692  -95.63
880.651629  0.29802  -95.70
880.751880  0.29905  -95.80
880.852130  0.30124  -96.11
880.952381  0.30288  -96.29
881.052632  0.30375  -96.32
881.152882  0.30427  -96.35
881.253133  0.30451  -96.46
881.353383  0.30604  -96.49
881.453634  0.30577  -96.25
881.553885  0.30623  -96.56
881.654135  0.30889  -96.74
881.754386  0.31138  -96.77
881.854637  0.31039  -97.16
881.954887  0.31094  -97.13
882.055138  0.30963  -96.88
882.155388  0.30799  -96.80
882.255639  0.30914  -96.80
882.355890  0.31087  -96.59
882.456140  0.31293  -96.53
882.556391  0.31365  -96.64
882.656642  0.31441  -96.80
882.756892  0.31578  -96.93
882.857143  0.31671  -96.99
882.957393  0.31714  -97.15
883.057644  0.31973  -97.56
883.157895  0.32315  -97.67
883.258145  0.32359  -97.34
883.358396  0.32445  -96.92
883.458647  0.32412  -96.71
883.558897  0.32114  -97.08
883.659148  0.32172  -97.64
883.759398  0.32328  -97.74
883.859649  0.32577  -98.12
883.959900  0.32674  -98.42
884.060150  0.32890  -98.31
884.160401  0.33140  -98.45
884.260652  0.33370  -98.69
884.360902  0.33460  -99.03
884.461153  0.33485  -99.27
884.561404  0.33487  -99.64
884.661654  0.33560  -99.87
884.761905  0.33437  -99.59
884.862155  0.33496  -99.36
884.962406  0.33524  -98.88
885.062657  0.33812  -98.95
885.162907  0.33943  -99.26
885.263158  0.33978  -99.43
885.363409  0.33917  -99.41
885.463659  0.34040  -99.23
885.563910  0.34180  -99.19
885.664160  0.34444  -99.23
885.764411  0.34770  -99.53
885.864662  0.34863  -99.79
885.964912  0.34919 -100.16
886.065163  0.34920 -100.27
886.165414  0.34876 -100.66
886.265664  0.34913 -100.45
886.365915  0.34837 -100.53
886.466165  0.34992 -100.48
886.566416  0.34938 -100.36
886.666667  0.34979 -100.33
886.766917  0.35120 -100.41
886.867168  0.35071 -100.38
886.967419  0.35236 -100.30
887.067669  0.35306 -100.54
887.167920  0.35456 -100.59
887.268170  0.35600 -100.73
887.368421  0.35661 -100.82
887.468672  0.35797 -100.93
887.568922  0.35818 -100.90
887.669173  0.35981 -101.25
887.769424  0.35984 -101.06
887.869674  0.36163 -101.29
887.969925  0.36410 -101.49
888.070175  0.36355 -101.48
888.170426  0.36559 -101.60
888.270677  0.36661 -101.73
888.370927  0.36709 -101.67
888.471178  0.36868 -101.61
888.571429  0.36970 -101.94
888.671679  0.37050 -101.94
888.771930  0.37066 -102.11
888.872180  0.37211 -102.19
888.972431  0.37291 -102.17
889.072682  0.37358 -102.12
889.172932  0.37395 -102.13
889.273183  0.37569 -102.33
889.373434  0.37578 -102.36
889.473684  0.37665 -102.42
889.573935  0.37764 -102.33
889.674185  0.37828 -102.39
889.774436  0.37855 -102.49
889.874687  0.37847 -102.57
889.974937  0.37994 -102.60
890.075188  0.38017 -102.80
890.175439  0.38092 -102.66
890.275689  0.38169 -102.90
890.375940  0.38268 -102.86
890.476190  0.38118 -102.95
890.576441  0.38353 -102.85
890.676692  0.38384 -102.85
890.776942  0.38458 -102.95
890.877193  0.38627 -103.05
890.977444  0.38612 -103.12
891.077694  0.38738 -103.04
891.177945  0.38828 -103.19
891.278195  0.38959 -103.11
891.378446  0.39094 -103.19
891.478697  0.39111 -103.18
891.578947  0.39076 -103.30
891.679198  0.39182 -103.48
891.779449  0.39275 -103.39
891.879699  0.39158 -103.61
891.979950  0.39203 -103.62
892.080201  0.39355 -103.76
892.180451  0.39352 -103.92
892.280702  0.39453 -103.86
892.380952  0.39606 -104.16
892.481203  0.39887 -104.34
892.581454  0.39784 -104.32
892.681704  0.39943 -104.78
892.781955  0.40026 -104.61
892.882206  0.40144 -104.98
892.982456  0.40411 -105.00
893.082707  0.40454 -104.90
893.182957  0.40579 -104.91
893.283208  0.40716 -104.96
893.383459  0.40764 -105.00
893.483709  0.40938 -105.03
893.583960  0.40963 -105.03
893.684211  0.40975 -104.93
893.784461  0.41066 -104.91
893.884712  0.41128 -104.90
893.984962  0.41214 -104.69
894.085213  0.41261 -104.88
894.185464  0.41410 -104.88
894.285714  0.41500 -105.11
894.385965  0.41627 -105.19
894.486216  0.41596 -105.05
894.586466  0.41641 -105.29
894.686717  0.41687 -105.40
894.786967  0.41868 -105.54
894.887218  0.41791 -105.73
894.987469  0.41896 -105.62
895.087719  0.41982 -105.71
895.187970  0.42069 -105.85
895.288221  0.42159 -105.82
895.388471  0.42114 -106.04
895.488722  0.42119 -106.13
895.588972  0.42310 -106.19
895.689223  0.42356 -106.26
895.789474  0.42421 -106.37
895.889724  0.42446 -106.42
895.989975  0.42563 -106.45
896.090226  0.42761 -106.64
896.190476  0.42802 -106.81
896.290727  0.43038 -106.64
896.390977  0.43016 -106.62
896.491228  0.43011 -106.72
896.591479  0.43151 -106.87
896.691729  0.43128 -106.89
896.791980  0.43079 -107.08
896.892231  0.43094 -107.25
896.992481  0.43108 -107.53
897.092732  0.43140 -107.73
897.192982  0.43157 -107.88
897.293233  0.43319 -108.18
897.393484  0.43519 -108.60
897.493734  0.43881 -108.63
897.593985  0.44351 -108.67
897.694236  0.44524 -108.21
897.794486  0.44722 -107.94
897.894737  0.44740 -107.74
897.994987  0.44759 -107.57
898.095238  0.44735 -107.63
898.195489  0.44820 -107.41
898.295739  0.44852 -107.26
898.395990  0.44511 -107.16
898.496241  0.44343 -107.38
898.596491  0.44225 -107.64
898.696742  0.44334 -108.04
898.796992  0.44143 -108.24
898.897243  0.44589 -108.44
898.997494  0.45009 -108.42
899.097744  0.45604 -108.48
899.197995  0.45948 -108.88
899.298246  0.45727 -109.34
899.398496  0.45543 -109.48
899.498747  0.45322 -109.31
899.598997  0.45126 -108.96
899.699248  0.45200 -108.26
899.799499  0.45825 -108.17
899.899749  0.46090 -108.92
900.000000  0.46098 -109.33
