# MHz S MA R 50
!   freq        S11       
108.000000  0.98269  -56.07
110.454454  0.98253  -57.41
112.908909  0.98247  -58.82
115.363363  0.98365  -60.23
117.817818  0.98255  -61.60
120.272272  0.98180  -63.04
122.726727  0.98178  -64.44
125.181181  0.98127  -65.91
127.635636  0.98073  -67.35
130.090090  0.97952  -68.78
132.544545  0.97873  -70.21
134.998999  0.97837  -71.64
137.453453  0.97631  -73.03
139.907908  0.97582  -74.47
142.362362  0.97270  -75.83
144.816817  0.97168  -77.32
147.271271  0.97067  -78.78
149.725726  0.96896  -80.24
152.180180  0.96839  -81.72
154.634635  0.96763  -83.20
157.089089  0.96552  -84.69
159.543544  0.96344  -86.22
161.997998  0.96118  -87.76
164.452452  0.95879  -89.21
166.906907  0.95649  -90.73
169.361361  0.95448  -92.14
171.815816  0.95219  -93.63
174.270270  0.95127  -95.10
176.724725  0.95024  -96.64
179.179179  0.94768  -98.22
181.633634  0.94564  -99.70
184.088088  0.94420 -101.27
186.542543  0.94303 -102.87
188.996997  0.94128 -104.50
191.451451  0.93827 -106.14
193.905906  0.93537 -107.66
196.360360  0.93266 -109.28
198.814815  0.93113 -110.85
201.269269  0.92866 -112.54
203.723724  0.92646 -114.23
206.178178  0.92447 -115.92
208.632633  0.92119 -117.70
211.087087  0.91598 -119.53
213.541542  0.90938 -121.28
215.995996  0.90242 -122.94
218.450450  0.89685 -124.54
220.904905  0.89101 -126.13
223.359359  0.88413 -127.76
225.813814  0.87818 -129.36
228.268268  0.87135 -130.98
230.722723  0.86510 -132.46
233.177177  0.86082 -133.92
235.631632  0.85641 -135.42
238.086086  0.85216 -136.96
240.540541  0.84863 -138.51
242.994995  0.84493 -140.05
245.449449  0.84319 -141.71
247.903904  0.83945 -143.45
250.358358  0.83453 -145.26
252.812813  0.82950 -147.16
255.267267  0.82347 -148.98
257.721722  0.81514 -150.91
260.176176  0.80212 -152.74
262.630631  0.79006 -154.26
265.085085  0.78031 -155.81
267.539540  0.76742 -157.39
269.993994  0.75296 -158.75
272.448448  0.73810 -159.80
274.902903  0.72321 -160.29
277.357357  0.72168 -160.98
279.811812  0.71043 -162.62
282.266266  0.69361 -162.30
284.720721  0.68964 -161.87
287.175175  0.69580 -161.35
289.629630  0.71325 -161.18
292.084084  0.73433 -161.92
294.538539  0.75585 -163.26
296.992993  0.77855 -165.31
299.447447  0.79166 -168.80
301.901902  0.75433 -170.63
304.356356  0.77306 -169.60
306.810811  0.79817 -171.31
309.265265  0.81659 -173.48
311.719720  0.82872 -175.74
314.174174  0.83766 -178.02
316.628629  0.84485  179.69
319.083083  0.85115  177.57
321.537538  0.85824  175.50
323.991992  0.86698  173.30
326.446446  0.87498  171.04
328.900901  0.88270  168.78
331.355355  0.89076  166.41
333.809810  0.89873  163.92
336.264264  0.90793  161.44
338.718719  0.91559  158.77
341.173173  0.92221  156.13
343.627628  0.92882  153.31
346.082082  0.93370  150.51
348.536537  0.93781  147.62
350.990991  0.94051  144.75
353.445445  0.94274  141.77
355.899900  0.94317  138.79
358.354354  0.94383  135.74
360.808809  0.94405  132.66
363.263263  0.94429  129.69
365.717718  0.94156  126.51
368.172172  0.93959  123.36
370.626627  0.93705  120.14
373.081081  0.93229  116.91
375.535536  0.92809  113.63
377.989990  0.92237  110.27
380.444444  0.91569  106.92
382.898899  0.90969  103.63
385.353353  0.90278  100.25
387.807808  0.89822   96.83
390.262262  0.89168   93.21
392.716717  0.88409   89.44
395.171171  0.87533   85.64
397.625626  0.86461   81.72
400.080080  0.85361   77.85
402.534535  0.84295   74.00
404.988989  0.83271   69.92
407.443443  0.82142   65.66
409.897898  0.80868   61.12
412.352352  0.79262   56.36
414.806807  0.77144   51.61
417.261261  0.74942   46.82
419.715716  0.72675   42.20
422.170170  0.70625   37.58
424.624625  0.68572   32.59
427.079079  0.66438   27.39
429.533534  0.64265   22.07
431.987988  0.62831   16.54
434.442442  0.59950   10.45
436.896897  0.57494    3.90
439.351351  0.54701   -2.89
441.805806  0.51549   -9.79
444.260260  0.48082  -16.89
446.714715  0.44842  -23.65
449.169169  0.41864  -30.36
451.623624  0.39131  -37.60
454.078078  0.36523  -45.79
456.532533  0.33724  -54.24
458.986987  0.31115  -62.92
461.441441  0.28527  -71.68
463.895896  0.26271  -79.60
466.350350  0.24716  -87.28
468.804805  0.23822  -95.23
471.259259  0.23557 -103.60
473.713714  0.23731 -112.27
476.168168  0.24194 -121.37
478.622623  0.24809 -130.96
481.077077  0.25453 -141.02
483.531532  0.25719 -150.71
485.985986  0.25913 -159.09
488.440440  0.26316 -166.23
490.894895  0.26936 -172.07
493.349349  0.27872 -177.13
495.803804  0.29242  178.04
498.258258  0.31009  172.72
500.712713  0.32472  167.03
503.167167  0.33497  161.62
505.621622  0.34396  156.67
508.076076  0.35405  152.50
510.530531  0.36829  148.71
512.984985  0.38495  144.71
515.439439  0.40178  140.49
517.893894  0.41657  136.13
520.348348  0.42804  131.84
522.802803  0.44029  127.88
525.257257  0.45118  123.58
527.711712  0.45898  119.98
530.166166  0.46694  116.43
532.620621  0.47553  113.21
535.075075  0.48543  110.14
537.529530  0.49684  107.16
539.983984  0.50885  104.20
542.438438  0.52213  100.80
544.892893  0.53505   97.34
547.347347  0.54667   93.93
549.801802  0.55700   90.51
552.256256  0.56694   86.89
554.710711  0.57452   83.29
557.165165  0.58037   79.79
559.619620  0.58303   76.39
562.074074  0.58506   73.25
564.528529  0.58796   70.04
566.982983  0.59047   67.25
569.437437  0.59304   64.61
571.891892  0.59728   61.96
574.346346  0.60218   59.41
576.800801  0.60858   56.80
579.255255  0.61377   54.05
581.709710  0.62075   51.23
584.164164  0.62557   48.54
586.618619  0.63103   45.82
589.073073  0.63895   42.99
591.527528  0.64635   40.33
593.981982  0.65547   37.46
596.436436  0.66340   34.42
598.890891  0.67018   31.27
601.345345  0.67351   28.02
603.799800  0.68106   25.00
606.254254  0.68564   21.89
608.708709  0.68956   18.74
611.163163  0.69334   15.58
613.617618  0.69436   12.44
616.072072  0.69741    9.30
618.526527  0.70120    6.03
620.980981  0.70192    2.86
623.435435  0.70283   -0.32
625.889890  0.70331   -3.48
628.344344  0.70302   -6.70
630.798799  0.70267   -9.80
633.253253  0.69958  -13.04
635.707708  0.69940  -16.03
638.162162  0.69689  -19.22
640.616617  0.69513  -22.01
643.071071  0.69267  -24.91
645.525526  0.69274  -27.85
647.979980  0.69248  -31.06
650.434434  0.69104  -33.77
652.888889  0.68920  -36.70
655.343343  0.68870  -39.48
657.797798  0.68963  -42.50
660.252252  0.68841  -45.70
662.706707  0.68830  -48.62
665.161161  0.68770  -51.64
667.615616  0.68727  -54.77
670.070070  0.68533  -57.95
672.524525  0.68555  -61.03
674.978979  0.68371  -64.19
677.433433  0.68129  -67.35
679.887888  0.67825  -70.60
682.342342  0.67340  -73.73
684.796797  0.67041  -76.93
687.251251  0.66665  -79.91
689.705706  0.66387  -83.01
692.160160  0.65833  -85.99
694.614615  0.65284  -88.97
697.069069  0.64671  -91.76
699.523524  0.64123  -94.41
701.977978  0.63747  -96.96
704.432432  0.63665  -99.53
706.886887  0.63664 -102.29
709.341341  0.63675 -104.91
711.795796  0.63612 -107.82
714.250250  0.63737 -110.63
716.704705  0.63613 -113.67
719.159159  0.63362 -116.48
721.613614  0.63296 -119.42
724.068068  0.63026 -122.40
726.522523  0.63159 -125.15
728.976977  0.63114 -128.20
731.431431  0.62908 -131.25
733.885886  0.62819 -134.23
736.340340  0.62406 -137.18
738.794795  0.62328 -139.99
741.249249  0.62066 -142.82
743.703704  0.61972 -145.75
746.158158  0.61771 -148.67
748.612613  0.61872 -151.62
751.067067  0.61560 -154.65
753.521522  0.61432 -157.66
755.975976  0.61210 -160.76
758.430430  0.61072 -163.96
760.884885  0.61314 -167.30
763.339339  0.61089 -170.75
765.793794  0.60269 -174.97
768.248248  0.58528 -179.03
770.702703  0.56865  177.90
773.157157  0.55069  175.44
775.611612  0.53652  173.23
778.066066  0.52422  170.98
780.520521  0.51196  168.69
782.974975  0.49757  166.67
785.429429  0.48175  165.73
787.883884  0.47648  165.66
790.338338  0.48404  164.16
792.792793  0.48988  161.98
795.247247  0.49236  159.35
797.701702  0.48980  156.51
800.156156  0.48540  153.80
802.610611  0.47840  151.32
805.065065  0.47377  149.14
807.519520  0.46680  146.87
809.973974  0.46065  144.43
812.428428  0.45454  142.12
814.882883  0.44677  139.74
817.337337  0.44008  137.67
819.791792  0.43311  135.30
822.246246  0.42614  133.12
824.700701  0.41792  130.74
827.155155  0.41219  128.75
829.609610  0.40474  126.55
832.064064  0.39657  123.99
834.518519  0.38728  121.70
836.972973  0.37610  119.48
839.427427  0.36413  117.78
841.881882  0.35365  116.42
844.336336  0.34462  114.73
846.790791  0.33719  113.38
849.245245  0.33025  111.80
851.699700  0.32390  109.93
854.154154  0.31480  107.48
856.608609  0.30465  105.20
859.063063  0.29219  103.16
861.517518  0.27789  101.36
863.971972  0.26361  100.18
866.426426  0.25062   99.03
868.880881  0.23757   98.35
871.335335  0.22474   97.87
873.789790  0.21162   97.38
876.244244  0.19822   97.80
878.698699  0.18709   98.67
881.153153  0.17697  100.04
883.607608  0.16911  101.65
886.062062  0.16260  103.32
888.516517  0.15575  104.94
890.970971  0.14861  106.85
893.425425  0.14059  109.01
895.879880  0.13336  112.16
898.334334  0.12721  115.53
900.788789  0.12325  119.78
903.243243  0.12048  124.60
905.697698  0.11957  129.56
908.152152  0.12052  135.37
910.606607  0.12547  140.96
913.061061  0.13320  146.01
915.515516  0.14268  149.63
917.969970  0.15345  152.96
920.424424  0.16596  155.04
922.878879  0.17895  156.57
925.333333  0.19526  157.60
927.787788  0.20849  157.33
930.242242  0.22211  156.87
932.696697  0.23428  156.56
935.151151  0.24847  156.20
937.605606  0.26346  155.86
940.060060  0.27590  155.46
942.514515  0.28852  154.68
944.968969  0.29966  153.94
947.423423  0.31620  153.57
949.877878  0.33396  152.19
952.332332  0.34972  150.87
954.786787  0.36599  149.65
957.241241  0.38186  148.29
959.695696  0.39722  146.50
962.150150  0.41181  144.93
964.604605  0.42637  143.36
967.059059  0.44061  141.72
969.513514  0.45638  140.10
971.967968  0.47246  138.11
974.422422  0.48740  136.38
976.876877  0.50264  134.44
979.331331  0.51684  132.35
981.785786  0.53008  130.08
984.240240  0.53986  128.03
986.694695  0.55035  125.92
989.149149  0.55811  123.80
991.603604  0.56467  122.07
994.058058  0.57263  120.41
996.512513  0.57984  118.57
998.966967  0.58718  117.01
1001.421421  0.59657  115.38
1003.875876  0.60538  113.83
1006.330330  0.61388  112.31
1008.784785  0.62220  110.54
1011.239239  0.62988  108.83
1013.693694  0.63694  107.12
1016.148148  0.64517  105.47
1018.602603  0.65156  103.92
1021.057057  0.65953  102.33
1023.511512  0.66635  100.58
1025.965966  0.67359   98.99
1028.420420  0.67930   97.30
1030.874875  0.68546   95.91
1033.329329  0.69047   94.30
1035.783784  0.69837   92.69
1038.238238  0.70260   91.11
1040.692693  0.71066   89.58
1043.147147  0.71847   87.83
1045.601602  0.72340   86.22
1048.056056  0.72889   84.74
1050.510511  0.73393   83.07
1052.964965  0.74060   81.23
1055.419419  0.74406   79.78
1057.873874  0.74969   78.20
1060.328328  0.75406   76.51
1062.782783  0.75646   74.96
1065.237237  0.76269   73.23
1067.691692  0.76643   71.67
1070.146146  0.77065   69.79
1072.600601  0.77243   68.45
1075.055055  0.77686   66.64
1077.509510  0.77942   65.01
1079.963964  0.78200   63.07
1082.418418  0.78650   61.56
1084.872873  0.79075   59.82
1087.327327  0.79171   58.17
1089.781782  0.79393   56.26
1092.236236  0.79780   54.78
1094.690691  0.79415   52.81
1097.145145  0.79493   51.03
1099.599600  0.79444   49.38
1102.054054  0.79237   47.46
1104.508509  0.79077   45.87
1106.962963  0.79003   44.12
1109.417417  0.78680   42.24
1111.871872  0.78360   40.51
1114.326326  0.78129   38.90
1116.780781  0.77917   37.04
1119.235235  0.77715   35.35
1121.689690  0.77099   33.52
1124.144144  0.76789   31.78
1126.598599  0.76391   30.07
1129.053053  0.76056   27.97
1131.507508  0.75472   26.04
1133.961962  0.74786   23.96
1136.416416  0.74086   21.85
1138.870871  0.73298   19.84
1141.325325  0.72235   17.40
1143.779780  0.70844   15.24
1146.234234  0.69429   12.93
1148.688689  0.67580   10.76
1151.143143  0.65559    8.64
1153.597598  0.63116    6.55
1156.052052  0.60875    4.62
1158.506507  0.58196    3.12
1160.960961  0.55311    1.66
1163.415415  0.52113    0.72
1165.869870  0.48918    0.59
1168.324324  0.45729    1.21
1170.778779  0.43188    3.55
1173.233233  0.41308    6.35
1175.687688  0.40469    9.85
1178.142142  0.40704   13.42
1180.596597  0.41887   16.32
1183.051051  0.43693   18.35
1185.505506  0.46315   19.44
1187.959960  0.48819   18.92
1190.414414  0.51254   17.15
1192.868869  0.53323   14.45
1195.323323  0.54147   10.81
1197.777778  0.53883    7.26
1200.232232  0.52272    3.43
1202.686687  0.49649    0.82
1205.141141  0.46304   -0.11
1207.595596  0.43194    0.79
1210.050050  0.40971    3.31
1212.504505  0.40076    6.36
1214.958959  0.40466    9.96
1217.413413  0.41507   12.21
1219.867868  0.43258   13.94
1222.322322  0.45132   14.40
1224.776777  0.47103   14.53
1227.231231  0.49123   14.06
1229.685686  0.50709   12.80
1232.140140  0.52270   11.79
1234.594595  0.53675   10.32
1237.049049  0.54924    8.80
1239.503504  0.56079    7.14
1241.957958  0.57392    5.41
1244.412412  0.58088    3.76
1246.866867  0.58765    1.87
1249.321321  0.59388   -0.08
1251.775776  0.59818   -1.76
1254.230230  0.60310   -3.65
1256.684685  0.60568   -5.54
1259.139139  0.60786   -7.55
1261.593594  0.60903   -9.08
1264.048048  0.60864  -11.08
1266.502503  0.60715  -12.83
1268.956957  0.60615  -14.59
1271.411411  0.60426  -16.33
1273.865866  0.60135  -17.94
1276.320320  0.59870  -19.48
1278.774775  0.59751  -20.98
1281.229229  0.59568  -22.58
1283.683684  0.59375  -24.26
1286.138138  0.59162  -25.83
1288.592593  0.59032  -27.23
1291.047047  0.58871  -28.93
1293.501502  0.58632  -30.52
1295.955956  0.58311  -32.08
1298.410410  0.57628  -33.94
1300.864865  0.57792  -35.44
1303.319319  0.57321  -37.33
1305.773774  0.56957  -38.97
1308.228228  0.56583  -40.66
1310.682683  0.56049  -42.44
1313.137137  0.55610  -44.04
1315.591592  0.55146  -45.62
1318.046046  0.54810  -47.40
1320.500501  0.54378  -49.23
1322.954955  0.53957  -51.10
1325.409409  0.53303  -53.01
1327.863864  0.52846  -54.90
1330.318318  0.52126  -56.66
1332.772773  0.51433  -58.55
1335.227227  0.50851  -60.53
1337.681682  0.50043  -62.45
1340.136136  0.49294  -64.22
1342.590591  0.48387  -66.12
1345.045045  0.47654  -68.01
1347.499499  0.46786  -69.86
1349.953954  0.45921  -71.83
1352.408408  0.45175  -73.73
1354.862863  0.44242  -75.94
1357.317317  0.43356  -77.86
1359.771772  0.42564  -79.88
1362.226226  0.41390  -82.13
1364.680681  0.40239  -84.27
1367.135135  0.39114  -86.24
1369.589590  0.38131  -88.41
1372.044044  0.36964  -90.69
1374.498498  0.35684  -92.42
1376.952953  0.34521  -94.66
1379.407407  0.33272  -96.65
1381.861862  0.31942  -98.80
1384.316316  0.30501 -100.67
1386.770771  0.29307 -102.58
1389.225225  0.27873 -104.43
1391.679680  0.26594 -106.23
1394.134134  0.25300 -108.07
1396.588589  0.24001 -109.98
1399.043043  0.22566 -111.82
1401.497497  0.21143 -114.00
1403.951952  0.19738 -115.49
1406.406406  0.18077 -118.03
1408.860861  0.16533 -118.66
1411.315315  0.14919 -119.46
1413.769770  0.13330 -119.81
1416.224224  0.11984 -119.42
1418.678679  0.10417 -119.21
1421.133133  0.08997 -117.20
1423.587588  0.07522 -113.25
1426.042042  0.06249 -105.92
1428.496496  0.05333  -93.55
1430.950951  0.05020  -77.88
1433.405405  0.05275  -63.41
1435.859860  0.05944  -51.84
1438.314314  0.06747  -44.36
1440.768769  0.07702  -39.06
1443.223223  0.08639  -35.44
1445.677678  0.09709  -33.48
1448.132132  0.10790  -31.85
1450.586587  0.11911  -31.29
1453.041041  0.13024  -31.19
1455.495495  0.14257  -32.00
1457.949950  0.15336  -33.01
1460.404404  0.16432  -34.43
1462.858859  0.17501  -36.20
1465.313313  0.18433  -37.87
1467.767768  0.19403  -40.00
1470.222222  0.20203  -42.07
1472.676677  0.20911  -43.91
1475.131131  0.21484  -45.66
1477.585586  0.22175  -47.14
1480.040040  0.22859  -48.70
1482.494494  0.23591  -50.05
1484.948949  0.24264  -51.73
1487.403403  0.25107  -53.82
1489.857858  0.25829  -55.69
1492.312312  0.26429  -57.59
1494.766767  0.27041  -59.62
1497.221221  0.27577  -61.68
1499.675676  0.28038  -63.39
1502.130130  0.28649  -65.05
1504.584585  0.29181  -66.79
1507.039039  0.29829  -68.23
1509.493493  0.30491  -70.15
1511.947948  0.31126  -71.97
1514.402402  0.31439  -74.85
1516.856857  0.32261  -76.17
1519.311311  0.32673  -78.48
1521.765766  0.33097  -80.60
1524.220220  0.33485  -82.42
1526.674675  0.33891  -84.44
1529.129129  0.34281  -86.47
1531.583584  0.34579  -88.77
1534.038038  0.34928  -90.66
1536.492492  0.35276  -92.60
1538.946947  0.35594  -94.18
1541.401401  0.35882  -96.20
1543.855856  0.36249  -98.19
1546.310310  0.36636  -99.95
1548.764765  0.37083 -102.05
1551.219219  0.37287 -104.19
1553.673674  0.37682 -106.05
1556.128128  0.37846 -108.16
1558.582583  0.38000 -110.29
1561.037037  0.38278 -112.18
1563.491491  0.38477 -113.95
1565.945946  0.38773 -115.62
1568.400400  0.38919 -117.75
1570.854855  0.39157 -119.66
1573.309309  0.39286 -121.64
1575.763764  0.39535 -123.63
1578.218218  0.39541 -125.57
1580.672673  0.39667 -127.16
1583.127127  0.39751 -129.00
1585.581582  0.40024 -130.60
1588.036036  0.40124 -132.49
1590.490490  0.40518 -133.69
1592.944945  0.40812 -135.74
1595.399399  0.41073 -137.29
1597.853854  0.41375 -139.23
1600.308308  0.41669 -141.06
1602.762763  0.41923 -142.72
1605.217217  0.42184 -144.34
1607.671672  0.42405 -146.38
1610.126126  0.42576 -148.13
1612.580581  0.42880 -149.61
1615.035035  0.43200 -151.66
1617.489489  0.43511 -153.47
1619.943944  0.43765 -154.94
1622.398398  0.43773 -156.99
1624.852853  0.44311 -158.81
1627.307307  0.44465 -160.52
1629.761762  0.44676 -162.39
1632.216216  0.44811 -163.80
1634.670671  0.45015 -165.61
1637.125125  0.45305 -167.08
1639.579580  0.45548 -168.58
1642.034034  0.45990 -170.75
1644.488488  0.46265 -172.29
1646.942943  0.46613 -174.26
1649.397397  0.46748 -175.70
1651.851852  0.46843 -177.48
1654.306306  0.47089 -179.18
1656.760761  0.47278  179.07
1659.215215  0.47525  177.42
1661.669670  0.47668  175.27
1664.124124  0.47654  173.72
1666.578579  0.47842  172.48
1669.033033  0.47974  170.98
1671.487487  0.48304  169.44
1673.941942  0.48464  168.01
1676.396396  0.48725  166.30
1678.850851  0.48940  164.93
1681.305305  0.49143  163.64
1683.759760  0.49341  161.97
1686.214214  0.49826  160.46
1688.668669  0.50253  158.45
1691.123123  0.50438  157.32
1693.577578  0.50635  155.55
1696.032032  0.50957  154.12
1698.486486  0.51306  152.00
1700.940941  0.51520  150.86
1703.395395  0.51692  149.26
1705.849850  0.51849  147.10
1708.304304  0.52091  145.87
1710.758759  0.52032  144.01
1713.213213  0.52203  142.21
1715.667668  0.52340  140.90
1718.122122  0.52465  139.46
1720.576577  0.52422  138.05
1723.031031  0.52615  136.33
1725.485485  0.52835  134.73
1727.939940  0.52610  133.37
1730.394394  0.53287  130.90
1732.848849  0.52827  130.68
1735.303303  0.52967  129.15
1737.757758  0.53149  128.09
1740.212212  0.53339  126.59
1742.666667  0.53494  125.21
1745.121121  0.53435  123.66
1747.575576  0.53808  122.74
1750.030030  0.54136  120.93
1752.484484  0.54436  119.27
1754.938939  0.54117  117.77
1757.393393  0.54149  116.65
1759.847848  0.54026  115.16
1762.302302  0.54260  113.68
1764.756757  0.54031  112.51
1767.211211  0.54221  111.27
1769.665666  0.54213  110.06
1772.120120  0.54514  108.56
1774.574575  0.54537  107.64
1777.029029  0.54631  106.07
1779.483483  0.55019  104.50
1781.937938  0.55138  102.83
1784.392392  0.54851  101.31
1786.846847  0.54690   99.97
1789.301301  0.54690   98.32
1791.755756  0.54466   96.91
1794.210210  0.54509   95.63
1796.664665  0.54125   93.96
1799.119119  0.54118   92.75
1801.573574  0.54004   91.97
1804.028028  0.53933   90.37
1806.482482  0.53472   89.02
1808.936937  0.53355   87.83
1811.391391  0.53381   86.45
1813.845846  0.53270   85.51
1816.300300  0.53074   84.18
1818.754755  0.52887   82.78
1821.209209  0.52787   81.66
1823.663664  0.52905   80.29
